# Hz S RI R 50
4e+09  -1.317  -0.9715  3.167  1.823  -0.6759  1.856  -3.362  -4.748
4.004e+09  0.4521  0.7795  -0.009426  0.002312  -0.01463  0.05625  -1.701  1.855
4.008e+09  1.027  -0.08215  0.01384  0.07319  -0.03305  -0.03178  0.8618  2.252
4.012e+09  0.339  -0.9349  0.01859  -0.001886  0.003335  0.07206  2.333  0.1762
4.016e+09  -0.6044  -0.7092  -0.005616  0.2311  -0.008619  -0.02697  1.15  -2.071
4.02e+09  -0.9518  0.2622  -0.07531  -0.07444  -0.007455  0.01863  -1.243  -1.909
4.024e+09  -0.2902  1.034  0.05351  -0.006672  0.04373  0.007207  -2.323  0.2059
4.028e+09  0.7276  0.5729  0.03635  -0.001875  -0.002951  -0.01698  -0.9092  1.985
4.032e+09  0.8323  -0.3245  0.01264  -0.05433  0.02799  -0.1013  1.433  1.689
4.036e+09  0.01364  -1.058  0.07062  -0.02999  0.03017  0.1153  2.102  -0.4755
4.04e+09  -0.9103  -0.4959  0.05533  0.01367  -0.00428  -0.01794  0.5123  -2.067
4.044e+09  -0.8299  0.5772  -0.008431  -0.08526  0.01835  0.01144  -1.554  -1.315
4.048e+09  0.1962  0.9858  0.02693  0.07519  -0.009268  0.03544  -1.921  0.6802
4.052e+09  0.981  0.3252  0.01565  0.01583  -0.1081  -0.05734  -0.2715  2.21
4.056e+09  0.715  -0.7239  -0.05922  0.04678  0.009925  -0.006734  1.73  1.174
4.06e+09  -0.3436  -0.9992  0.08072  -0.005144  -0.06665  -0.01708  1.764  -1.05
4.064e+09  -0.928  -0.0699  -0.01543  -0.0128  -0.02488  0.005508  -0.104  -2.053
4.068e+09  -0.529  0.8035  -0.153  -0.07219  -0.05679  -0.02218  -1.928  -0.845
4.072e+09  0.5613  0.9191  -0.02291  -0.03878  0.08512  -0.08353  -1.536  1.245
4.076e+09  1.086  -0.05869  0.05299  -0.0003423  0.08527  0.03853  0.3806  1.991
4.08e+09  0.3876  -0.8975  -0.108  0.03116  -0.003719  0.00235  1.966  0.5088
4.084e+09  -0.659  -0.7851  0.004835  0.09468  0.01482  -0.007324  1.433  -1.471
4.088e+09  -0.9784  0.352  0.02561  -0.07662  -0.01329  0.03368  -0.6387  -1.888
4.092e+09  -0.1215  1.01  -0.001503  -0.04673  -0.002317  -0.01584  -1.92  -0.3228
4.096e+09  0.8625  0.553  -0.08997  0.05542  -0.02982  -0.03649  -1.287  1.667
4.1e+09  0.9601  -0.5839  -0.07402  -0.01415  0.01211  -2.94e-05  0.7537  1.865
4.104e+09  -0.07312  -1.072  -0.008784  0.06364  -0.1094  0.03459  1.934  -0.01158
4.108e+09  -0.8951  -0.3432  -0.01526  -0.009299  0.02723  0.0373  1.064  -1.774
4.112e+09  -0.7382  0.6185  -0.05687  -0.02349  0.04931  0.0916  -1.087  -1.633
4.116e+09  0.2853  0.9357  0.06391  -0.06458  0.04895  0.03513  -2.006  0.1178
4.12e+09  0.8704  0.1178  -0.1034  -0.01454  -0.1284  0.02522  -0.6492  1.768
4.124e+09  0.5563  -0.7715  -0.03196  0.01628  -0.01864  -0.009071  1.324  1.453
4.128e+09  -0.4301  -0.801  -0.07578  0.08501  -0.01403  0.03931  1.965  -0.4766
4.132e+09  -0.9441  -0.01947  -0.0552  -0.007717  0.01261  0.04675  0.5215  -2.043
4.136e+09  -0.4141  0.77  0.04659  -0.04841  0.02625  -0.06803  -1.609  -1.271
4.14e+09  0.5386  0.689  -0.06554  -0.009653  -0.1141  -0.003609  -1.896  0.8454
4.144e+09  0.8438  -0.06088  -0.006261  -0.04701  -0.05268  -0.02641  -0.1293  2.134
4.148e+09  0.2526  -0.8315  0.01923  -0.0496  0.001804  -0.0813  1.871  1.037
4.152e+09  -0.597  -0.5609  0.003201  0.008092  -0.031  -0.03725  1.645  -1.154
4.156e+09  -0.8056  0.346  -0.1291  -0.01191  -0.08487  0.03945  -0.2739  -2.095
4.16e+09  -0.1195  0.818  0.02031  0.003643  0.01129  0.02833  -2.064  -0.6738
4.164e+09  0.6416  0.4767  0.07169  -0.02244  0.06627  -0.02674  -1.56  1.59
4.168e+09  0.7207  -0.4477  -0.01861  -0.02962  0.06185  0.03312  0.8171  2.045
4.172e+09  -0.007737  -0.8671  0.03504  -0.1217  0.01378  0.01769  2.102  0.07357
4.176e+09  -0.6896  -0.3589  0.01371  -0.01914  0.0285  0.014  1.051  -1.95
4.18e+09  -0.5921  0.5015  -0.09506  -0.02174  0.007769  0.004095  -1.148  -1.749
4.184e+09  0.1649  0.7597  0.04283  0.001337  -0.003505  -0.01115  -2.156  0.3907
4.188e+09  0.7942  0.2266  -0.07823  0.03817  0.006413  -0.01294  -0.6811  2.08
4.192e+09  0.5688  -0.5705  0.08289  -0.009602  0.01144  -0.004787  1.627  1.52
4.196e+09  -0.2977  -0.7521  -0.0137  0.0453  -0.05832  -0.001697  1.941  -0.7822
4.2e+09  -0.7768  -0.03707  0.1296  0.07122  -0.07215  0.005417  0.004277  -1.978
4.204e+09  -0.5166  0.6653  -0.1202  -0.01235  0.0135  -0.06591  -1.869  -1.038
4.208e+09  0.4232  0.7612  -0.05378  -0.01404  0.00119  -0.006233  -1.706  1.151
4.212e+09  0.8787  0.03419  0.04801  0.0001398  0.07128  0.06135  0.4488  2.046
4.216e+09  0.3984  -0.7833  0.06619  0.03836  0.01738  -0.02697  2.006  0.5198
4.22e+09  -0.519  -0.7443  -0.003684  0.004601  0.06714  0.07367  1.363  -1.615
4.224e+09  -0.8777  0.1004  -0.05635  0.09772  -0.06047  0.01605  -0.9068  -1.871
4.228e+09  -0.3306  0.7847  0.01262  -0.002884  -0.05825  -0.01982  -1.95  -0.01058
4.232e+09  0.5601  0.7059  -0.03053  0.08242  0.03394  0.004919  -0.8473  1.74
4.236e+09  0.8633  -0.2354  -0.001578  -0.01921  0.06642  -0.009158  1.17  1.554
4.24e+09  0.06708  -0.8928  0.09928  0.03617  -0.06812  -0.008969  1.857  -0.5154
4.244e+09  -0.7667  -0.5919  0.0417  0.03837  0.01312  0.04764  0.486  -1.793
4.248e+09  -0.8576  0.2956  -0.04837  -0.005573  -0.01346  0.02408  -1.387  -1.198
4.252e+09  0.007439  0.9973  -0.01295  -0.03291  -0.03014  0.03634  -1.673  0.7556
4.256e+09  0.7774  0.4854  -0.03012  -0.04781  -0.02549  -0.03067  -0.05677  1.838
4.26e+09  0.8313  -0.5812  0.02346  -0.1054  -0.008113  0.008733  1.443  0.7945
4.264e+09  -0.1172  -0.982  -0.07775  0.0868  -0.01444  -0.02328  1.448  -0.9017
4.268e+09  -0.8855  -0.331  -0.05023  -0.06258  0.02853  0.001708  -0.1407  -1.678
4.272e+09  -0.7435  0.6759  -0.0537  0.01847  0.02785  -0.01912  -1.682  -0.6396
4.276e+09  0.3717  0.9559  0.08754  0.08011  0.04396  -0.05113  -1.272  1.114
4.28e+09  1.049  0.1563  -0.07361  0.04502  -0.05666  0.05559  0.434  1.628
4.284e+09  0.603  -0.8216  -0.0152  0.05184  -0.007023  0.001671  1.603  0.2964
4.288e+09  -0.5463  -0.8006  0.1258  -0.008886  0.0203  0.03035  1.123  -1.27
4.292e+09  -1.058  0.001493  -0.07205  -0.0959  -0.03045  0.03145  -0.7157  -1.427
4.296e+09  -0.4117  0.8751  -0.05855  0.1223  -0.008463  -0.01599  -1.586  0.005127
4.3e+09  0.6886  0.776  -0.03722  0.07315  -0.06123  -0.008572  -0.8414  1.439
4.304e+09  1.002  -0.264  -0.07107  0.06231  -0.005611  -0.02783  0.9019  1.294
4.308e+09  0.2276  -0.9094  -0.05241  -0.0714  -0.008437  -0.03844  1.611  -0.1305
4.312e+09  -0.7163  -0.6812  -0.03157  0.07956  -0.0007499  0.01405  0.5326  -1.528
4.316e+09  -0.8418  0.3826  -0.01917  -0.004021  -0.02879  0.003332  -1.067  -1.278
4.32e+09  -0.06017  0.9454  -0.02408  0.03109  0.01475  -0.005184  -1.62  0.4519
4.324e+09  0.9154  0.4817  -0.02369  -0.004836  0.007641  0.06528  -0.4148  1.698
4.328e+09  0.8227  -0.5046  0.09096  0.0208  0.05474  -0.06438  1.35  1.104
4.332e+09  -0.1157  -0.9946  -0.04262  0.05852  -0.03853  -0.02131  1.61  -0.7582
4.336e+09  -0.8524  -0.3468  -0.01579  -0.06971  -0.04694  0.03443  0.1855  -1.754
4.34e+09  -0.6596  0.6699  -0.04363  -0.0333  0.02644  0.02661  -1.549  -1.039
4.344e+09  0.1849  0.8348  -0.03969  -0.003825  0.0007289  -0.07752  -1.479  0.9222
4.348e+09  0.9339  0.1487  -0.03591  0.0257  -0.03006  0.01102  0.0293  1.769
4.352e+09  0.5421  -0.7503  -0.07382  0.05393  0.006435  0.009232  1.652  0.7103
4.356e+09  -0.4096  -0.7803  -0.04136  0.04638  0.02718  0.01989  1.357  -1.175
4.36e+09  -0.8779  0.04636  -0.003718  0.004977  0.01618  0.01499  -0.4213  -1.686
4.364e+09  -0.4117  0.8157  0.07986  -0.00995  -0.001963  0.04994  -1.675  -0.3993
4.368e+09  0.5343  0.71  0.08111  -0.007928  0.05492  -0.0072  -1.189  1.535
4.372e+09  0.8688  -0.1844  -0.02048  -0.02152  0.02347  -0.03895  0.755  1.625
4.376e+09  0.2597  -0.7787  -0.02631  0.03726  -0.01393  0.08302  1.854  0.002216
4.38e+09  -0.6063  -0.5817  -0.04623  -0.06243  -0.02549  0.0002377  0.9358  -1.638
4.384e+09  -0.6998  0.3223  0.003162  0.02398  -0.006387  -0.008501  -0.9834  -1.618
4.388e+09  -0.1642  0.8481  -0.05546  0.1654  -0.005705  -0.06966  -1.842  0.2091
4.392e+09  0.7256  0.4468  0.02922  -0.03004  0.04818  0.0091  -0.6783  1.872
4.396e+09  0.6754  -0.3687  -0.03141  0.005755  -0.04489  -0.003695  1.382  1.365
4.4e+09  0.1317  -0.8341  -0.01635  0.1181  -0.05671  0.06321  1.796  -0.5954
4.404e+09  -0.6739  -0.3546  -0.07863  0.08614  0.01104  0.04064  0.1729  -1.913
4.408e+09  -0.6361  0.4799  -0.06194  0.02721  0.06481  0.01209  -1.673  -0.9782
4.412e+09  0.1019  0.7448  0.1077  0.02328  0.05592  0.01525  -1.675  0.951
4.416e+09  0.8076  0.2037  0.08022  0.06528  -0.02602  -0.009092  0.1206  1.835
4.42e+09  0.5447  -0.5614  0.03133  -0.05531  0.02649  0.002652  1.679  0.6016
4.424e+09  -0.2843  -0.7199  -0.04105  0.03455  0.04111  0.03368  1.267  -1.138
4.428e+09  -0.7409  -0.1141  0.0002125  -0.01185  -0.01747  0.008549  -0.5483  -1.699
4.432e+09  -0.4551  0.6583  -0.01553  5.834e-05  0.04546  0.02234  -1.743  -0.3211
4.436e+09  0.3698  0.675  -0.0196  -0.1185  -0.04628  0.002139  -1.021  1.385
4.44e+09  0.8144  -0.0178  -0.006167  -0.08412  0.01203  0.004502  0.8611  1.538
4.444e+09  0.2933  -0.7199  0.01013  0.07137  0.008853  0.01209  1.66  -0.1213
4.448e+09  -0.457  -0.5994  -0.008244  0.006347  -0.04712  -0.01512  0.7282  -1.592
4.452e+09  -0.7951  0.204  0.007475  -0.01215  0.02246  0.03415  -1.012  -1.318
4.456e+09  -0.2135  0.7589  0.001725  -0.01253  -0.0008607  0.04088  -1.663  0.4034
4.46e+09  0.581  0.5518  0.009582  0.05911  0.03622  0.04639  -0.33  1.551
4.464e+09  0.736  -0.3595  0.005977  -0.03255  0.0558  0.05563  1.256  0.9838
4.468e+09  0.05156  -0.7706  -0.02773  -0.123  0.001271  0.07412  1.516  -0.6034
4.472e+09  -0.6444  -0.4135  -0.05435  0.04633  -0.01568  -0.0472  0.04416  -1.568
4.476e+09  -0.6608  0.4611  -0.01779  -0.06231  0.03981  0.04223  -1.423  -0.6412
4.48e+09  0.08865  0.7449  -0.07132  0.09403  0.0008751  -0.007783  -1.197  0.9022
4.484e+09  0.7775  0.2924  0.06528  0.0218  0.009492  -0.03584  0.2794  1.44
4.488e+09  0.5934  -0.5982  0.06328  0.03085  0.01827  0.01464  1.295  0.3825
4.492e+09  -0.1822  -0.7745  0.01532  -0.04918  0.006463  0.003175  1.026  -1.02
4.496e+09  -0.7682  -0.09949  0.04105  -0.002841  0.007888  -0.05408  -0.5451  -1.248
4.5e+09  -0.3874  0.7012  -0.1377  -0.1366  -0.007181  -0.06418  -1.596  -0.002744
4.504e+09  0.3958  0.6391  0.02513  -0.07832  0.03799  -0.0627  -0.7852  1.086
4.508e+09  0.7354  -0.07351  0.00104  0.04556  0.02496  -0.05559  0.7262  1.205
4.512e+09  0.2937  -0.6852  0.02284  0.04305  -0.05164  -0.01607  1.362  -0.04569
4.516e+09  -0.4895  -0.5847  -0.03141  -0.1337  -0.0041  -0.02875  0.5331  -1.169
4.52e+09  -0.6973  0.1658  0.01932  -0.04359  -0.0006149  0.05463  -0.9676  -1.106
4.524e+09  -0.1972  0.7111  -0.01999  0.1032  0.006884  -0.05199  -1.369  0.2766
4.528e+09  0.5252  0.4919  0.008194  0.01801  -0.02675  0.01294  -0.333  1.297
4.532e+09  0.6688  -0.269  0.03318  -0.004082  0.01775  -0.08451  0.9077  0.884
4.536e+09  -0.009888  -0.707  -0.08513  0.1001  0.0006379  -0.04223  1.216  -0.4081
4.54e+09  -0.6435  -0.3247  0.005459  0.02615  -0.04547  0.06471  0.09129  -1.287
4.544e+09  -0.6457  0.4259  0.04718  -0.08915  0.01966  0.04078  -1.152  -0.7188
4.548e+09  0.04961  0.7407  0.07358  -0.03374  0.04969  0.02804  -1.085  0.5904
4.552e+09  0.6832  0.2791  -0.07378  0.03387  0.02246  -0.02308  0.1061  1.189
4.556e+09  0.5771  -0.4283  0.01485  -0.02962  -0.02499  -0.03551  1.242  0.5122
4.56e+09  -0.149  -0.7045  0.01777  0.02262  0.0342  -0.03381  0.9694  -0.82
4.564e+09  -0.7191  -0.1568  -0.03564  -0.03596  0.01336  0.0391  -0.3376  -1.363
4.568e+09  -0.4716  0.5563  -0.04468  0.03885  -0.06471  -0.01031  -1.317  -0.3289
4.572e+09  0.1924  0.6567  -0.05885  0.02553  -0.06905  -0.03814  -1.004  1.103
4.576e+09  0.6576  0.1025  -0.009116  0.1264  -0.0149  -0.006938  0.626  1.242
4.58e+09  0.4187  -0.6562  0.004561  0.02237  0.07127  0.03675  1.401  -0.02973
4.584e+09  -0.2911  -0.6442  0.07754  0.03411  -0.0222  0.06909  0.703  -1.167
4.588e+09  -0.7524  -0.001846  0.05558  0.03286  0.01714  -0.004071  -0.8076  -1.105
4.592e+09  -0.37  0.6844  0.08385  0.007112  -0.04393  0.01008  -1.232  0.2395
4.596e+09  0.4148  0.6105  -0.009887  -0.01706  0.006245  -0.06618  -0.3264  1.413
4.6e+09  0.7368  -0.06714  0.08594  -0.03426  0.02477  -0.02864  1.071  0.9371
4.604e+09  0.3052  -0.7249  -1.441e-06  -0.06641  -0.01315  -0.0006569  1.315  -0.568
4.608e+09  -0.5072  -0.6241  -0.07324  -0.07304  0.03467  0.008366  0.1345  -1.473
4.612e+09  -0.7293  0.1356  -0.04678  -0.02381  0.03405  0.03415  -1.213  -0.7897
4.616e+09  -0.1566  0.7062  -0.0722  -0.0004019  0.01239  -0.03006  -1.322  0.803
4.62e+09  0.5961  0.4329  0.01282  0.02626  -0.07316  0.009325  0.06168  1.461
4.624e+09  0.6956  -0.2357  0.02111  0.005376  -0.03036  0.02317  1.294  0.6063
4.628e+09  0.03398  -0.7353  -0.0005517  0.0771  0.02072  -0.01082  1.141  -0.9974
4.632e+09  -0.5859  -0.3905  -0.01351  0.0262  0.0002424  0.01454  -0.4205  -1.253
4.636e+09  -0.6528  0.3477  -0.01233  -0.01352  -0.002097  -0.01639  -1.22  -0.2478
4.64e+09  0.03067  0.7831  0.05478  -0.01616  0.01534  -0.01097  -0.6654  1.162
4.644e+09  0.7161  0.3254  -0.03969  -0.0331  -0.009028  0.05641  0.7054  1.156
4.648e+09  0.6178  -0.4626  -0.04871  0.009476  -0.02141  -0.03127  1.349  -0.0586
4.652e+09  -0.1103  -0.7774  -0.03025  0.01458  0.0214  0.032  0.5522  -1.241
4.656e+09  -0.7719  -0.2195  0.0415  0.09695  0.007945  -0.0002092  -0.8021  -0.9519
4.66e+09  -0.6265  0.5824  -0.006045  -0.02368  0.003305  0.01542  -1.363  0.2958
4.664e+09  0.2565  0.7018  -0.02909  0.06555  0.02338  -0.01645  -0.3328  1.26
4.668e+09  0.8504  0.08788  -0.02419  -0.02978  -0.09504  -0.02003  1.083  0.8627
4.672e+09  0.4399  -0.6193  -0.03884  0.02844  -0.02286  -0.00565  1.225  -0.5156
4.676e+09  -0.367  -0.697  0.02261  0.02102  0.002978  0.04981  0.04426  -1.284
4.68e+09  -0.7941  0.01413  -0.0007462  0.05351  -0.03246  0.007215  -1.052  -0.6733
4.684e+09  -0.339  0.6923  -0.02571  -0.03084  0.02558  -0.02376  -1.135  0.6166
4.688e+09  0.4524  0.6122  0.05831  0.0321  0.02239  -0.01218  0.08719  1.238
4.692e+09  0.8065  -0.1663  0.007887  0.04176  -0.0227  0.04622  1.144  0.4986
4.696e+09  0.2096  -0.77  0.003455  -0.005575  -0.02362  0.04109  0.8276  -0.7559
4.7e+09  -0.5786  -0.4871  -0.004654  -0.06424  -0.03281  -0.02358  -0.2295  -1.202
4.704e+09  -0.7102  0.3231  -0.0354  -0.03715  0.01513  0.0357  -1.091  -0.2543
4.708e+09  -0.0238  0.777  -0.02202  -0.03055  0.03658  0.04474  -0.7035  0.9957
4.712e+09  0.6598  0.3821  0.04916  -0.03453  -0.02346  -0.04639  0.4953  1.073
4.716e+09  0.6333  -0.4828  -0.06626  -0.0431  0.003592  -0.0412  1.121  0.07337
4.72e+09  -0.1678  -0.7361  0.0439  -0.06311  0.0211  0.01465  0.6215  -0.9734
4.724e+09  -0.6995  -0.1901  0.01856  -0.02331  -0.02542  -0.01579  -0.5637  -1.004
4.728e+09  -0.4601  0.5082  -0.05468  -0.02161  0.03624  0.01736  -1.056  0.06392
4.732e+09  0.3123  0.6102  -0.03106  -0.0006318  0.005384  -0.01521  -0.4665  1.058
4.736e+09  0.6447  -0.01103  0.008271  -0.03003  0.001935  0.03227  0.6801  0.9009
4.74e+09  0.3606  -0.5729  -0.08367  0.05118  0.01851  -0.01555  1.058  -0.2048
4.744e+09  -0.3658  -0.5731  0.01141  0.01594  -0.0108  0.08578  0.2544  -1.03
4.748e+09  -0.6412  0.09225  0.06885  -0.02093  2.344e-05  -0.0174  -0.8201  -0.785
4.752e+09  -0.2298  0.6046  -0.004146  -0.06829  -0.002867  0.06089  -0.9989  0.3439
4.756e+09  0.4315  0.4736  -0.09212  0.0262  0.0392  0.007862  -0.1163  1.054
4.76e+09  0.5553  -0.2066  0.03977  0.01704  -0.004698  -0.007687  0.9017  0.6189
4.764e+09  0.1296  -0.5783  -0.08806  -0.04484  0.05111  0.001885  1.03  -0.5296
4.768e+09  -0.4825  -0.3551  0.02966  -0.06556  -0.05566  -0.01699  -0.09368  -1.168
4.772e+09  -0.519  0.2474  0.02206  -0.0856  0.02451  -0.004008  -1.022  -0.4568
4.776e+09  0.0009594  0.5654  -0.01524  -0.02469  0.04024  0.03282  -0.9624  0.6888
4.78e+09  0.5288  0.2689  -0.04476  -0.0112  0.02026  0.0301  0.2371  1.161
4.784e+09  0.4215  -0.266  -0.07126  0.02375  0.002496  0.006235  1.013  0.2741
4.788e+09  -0.1376  -0.5282  -0.04027  0.004045  0.02706  -0.0445  0.7955  -0.8575
4.792e+09  -0.4761  -0.1499  0.03957  0.08235  -0.006988  -0.03056  -0.3438  -1.187
4.796e+09  -0.3939  0.332  0.0732  -0.02061  -0.02957  -0.03449  -1.24  -0.08881
4.8e+09  0.1183  0.5851  -0.107  0.00199  0.04602  -0.01475  -0.6487  0.9269
4.804e+09  0.505  0.1538  -0.01238  -0.07229  0.01713  0.05359  0.6244  1.076
4.808e+09  0.3323  -0.3512  -0.01893  0.04381  0.003831  -0.01839  1.225  -0.1189
4.812e+09  -0.2433  -0.4831  0.04251  0.05604  -0.01494  0.0377  0.4964  -1.225
4.816e+09  -0.5251  -0.03009  0.06906  0.02238  0.01291  0.003519  -0.8518  -0.8933
4.82e+09  -0.2514  0.4452  0.03951  0.08209  -0.01139  -0.06959  -1.218  0.482
4.824e+09  0.211  0.4178  0.03968  -0.08513  0.01882  -0.003482  -0.1783  1.314
4.828e+09  0.5257  -0.0004214  0.03515  -0.05416  -0.04589  0.00839  1.085  0.7208
4.832e+09  0.2408  -0.4722  0.1062  -0.01795  -0.0012  -0.001107  1.083  -0.7431
4.836e+09  -0.3447  -0.4201  -0.09207  0.005882  -0.0271  -0.006556  -0.1863  -1.317
4.84e+09  -0.5532  0.1032  0.04678  0.04886  0.01747  0.02873  -1.246  -0.4851
4.844e+09  -0.1008  0.5071  -0.02996  0.01517  0.005163  -0.0283  -0.9526  1.009
4.848e+09  0.4282  0.3876  0.03881  0.01315  0.02742  0.03285  0.4221  1.208
4.852e+09  0.5544  -0.243  -0.08759  0.01704  0.02224  0.04986  1.281  0.2007
4.856e+09  0.1119  -0.6294  0.02838  -0.04523  -0.06759  0.01356  0.6816  -1.069
4.86e+09  -0.4973  -0.3551  0.0007006  -0.02376  -0.01193  0.09134  -0.7142  -1.122
4.864e+09  -0.5849  0.3024  -0.04888  0.0005863  -0.00146  -0.001342  -1.151  0.04192
4.868e+09  0.03051  0.645  -0.05015  0.0313  -0.01615  0.05824  -0.3541  1.076
4.872e+09  0.6059  0.2779  -0.01377  0.04724  0.03751  0.003179  0.7459  0.843
4.876e+09  0.5829  -0.3946  -0.02108  -0.07625  0.008517  0.02525  1.072  -0.2792
4.88e+09  -0.06792  -0.6901  -0.005818  -0.0008254  -0.0001885  -0.04531  0.09265  -1.087
4.884e+09  -0.6765  -0.2302  -0.03169  0.05835  0.0506  -0.03534  -0.8302  -0.6765
4.888e+09  -0.5796  0.4964  -0.03598  -0.009601  0.06981  -0.02058  -0.8996  0.5545
4.892e+09  0.192  0.7258  0.02285  0.03647  0.03315  -0.00853  0.002891  1.035
4.896e+09  0.733  0.129  0.01109  -0.02002  0.02853  0.05085  0.8535  0.5111
4.9e+09  0.4397  -0.6364  0.0585  -0.02894  0.002451  -0.04666  0.7531  -0.6635
4.904e+09  -0.3706  -0.6948  -0.02087  -0.02287  0.01166  -0.005745  -0.1279  -1.001
4.908e+09  -0.7813  0.07378  0.03781  -0.005605  -0.008781  -0.01913  -0.9366  -0.3548
4.912e+09  -0.302  0.6932  0.001786  -0.02058  0.03757  -0.02935  -0.7219  0.6737
4.916e+09  0.5429  0.5899  0.05579  0.05376  0.02319  -0.005617  0.2353  0.8867
4.92e+09  0.8006  -0.1737  0.03817  -0.03243  -0.01621  -0.05076  0.8783  0.1762
4.924e+09  0.2308  -0.8601  0.04532  0.05323  -0.04863  0.03193  0.5922  -0.6604
4.928e+09  -0.63  -0.4861  0.03029  -0.02991  -0.02276  0.05334  -0.3423  -0.8036
4.932e+09  -0.7776  0.3497  -1.707e-05  -0.05231  0.00681  -0.02887  -0.9028  -0.0977
4.936e+09  -0.03746  0.8117  0.02599  0.01958  -0.03136  0.004727  -0.4835  0.6633
4.94e+09  0.6725  0.363  -0.04006  -0.03019  -0.05166  0.01993  0.4486  0.7657
4.944e+09  0.6532  -0.4893  0.04009  0.03963  -0.05189  -0.04615  0.8462  -0.01138
4.948e+09  -0.1244  -0.7978  -0.02258  -0.07598  -0.004187  -0.02074  0.3403  -0.7281
4.952e+09  -0.7176  -0.2063  0.05168  0.01715  -0.007269  -0.03589  -0.5017  -0.7392
4.956e+09  -0.5351  0.5062  -0.01182  -0.02044  0.08036  0.02426  -0.8209  0.1174
4.96e+09  0.1938  0.6742  0.07048  0.03891  0.008622  0.01321  -0.2317  0.7226
4.964e+09  0.6907  0.1097  0.02319  -0.06115  -0.0432  -0.0211  0.544  0.578
4.968e+09  0.4136  -0.5417  -0.002906  -0.04893  0.04276  0.03752  0.7944  -0.2812
4.972e+09  -0.3044  -0.6172  -0.05834  -0.03969  -0.0129  0.007726  0.2432  -0.8001
4.976e+09  -0.665  0.07266  -0.008633  0.0492  -0.006778  0.01984  -0.622  -0.619
4.98e+09  -0.2474  0.609  -0.005194  0.004703  -0.0003658  -0.0154  -0.7893  0.2925
