# Hz S RI R 50
4e+09  0.9733  -0.2827  -1.996  1.559  1.989  -0.2303  -4.735  0.9164
4.004e+09  -0.2697  0.9201  -0.006438  -0.05113  -0.01553  0.02521  -1.553  1.824
4.008e+09  0.6501  0.6553  0.02578  -0.0488  0.01096  0.04198  0.9547  2.181
4.012e+09  0.905  -0.2743  0.06795  0.07545  -0.05209  0.07444  2.334  0.06512
4.016e+09  0.1644  -0.9349  -0.06125  0.02724  -0.06893  0.01885  1.09  -2.081
4.02e+09  -0.7621  -0.5712  0.08674  -0.0265  0.01748  -0.01048  -1.328  -1.983
4.024e+09  -0.8084  0.4794  0.02332  0.006617  -0.03412  0.01549  -2.184  0.2959
4.028e+09  0.01792  0.9397  -0.01441  -0.08472  -0.04793  0.02446  -0.815  1.85
4.032e+09  0.8725  0.4419  -0.01069  0.009522  0.04651  -0.01918  1.445  1.666
4.036e+09  0.7909  -0.7031  -0.0005915  0.006246  0.01296  0.001357  2.078  -0.5881
4.04e+09  -0.2299  -0.9191  0.005491  0.09455  0.03103  0.02921  0.5212  -2.065
4.044e+09  -0.9847  -0.2335  0.02008  0.03656  0.003934  -0.01283  -1.575  -1.31
4.048e+09  -0.6822  0.6418  0.02514  0.001551  0.01222  0.007787  -1.857  0.8619
4.052e+09  0.3246  0.8859  -0.03787  0.09639  0.0615  0.01838  -0.01947  2.115
4.056e+09  1.07  0.01466  0.09887  0.04317  -0.03636  -0.02261  1.891  1.018
4.06e+09  0.506  -0.8416  0.05714  -0.01665  -0.06891  -0.0419  1.768  -1.026
4.064e+09  -0.518  -0.8368  -0.0464  -0.03552  -0.01796  -0.04209  -0.1396  -2.044
4.068e+09  -0.9466  0.14  0.0225  -0.122  0.03859  -0.006563  -1.918  -0.8611
4.072e+09  -0.3137  0.9439  0.08196  0.05173  0.04897  0.04632  -1.55  1.285
4.076e+09  0.7834  0.7332  0.004112  0.1068  0.09112  -0.01391  0.4718  1.991
4.08e+09  0.9905  -0.3798  -0.05395  -0.1009  0.01013  0.05365  1.933  0.6367
4.084e+09  0.06456  -1.105  -0.01577  -0.01075  0.03725  0.0564  1.357  -1.371
4.088e+09  -0.9712  -0.5719  0.09603  0.1393  0.04527  -0.006352  -0.6425  -1.986
4.092e+09  -0.9002  0.5967  -0.05381  -0.0243  -0.02528  0.02025  -1.929  -0.3296
4.096e+09  0.2029  1.075  -0.1117  0.03037  -0.01669  -0.02336  -1.152  1.522
4.1e+09  1.043  0.343  -0.006259  0.02355  -0.06905  0.0278  0.8793  1.539
4.104e+09  0.7296  -0.8049  -0.04239  0.05644  -0.05161  0.02684  1.961  0.1202
4.108e+09  -0.4061  -0.9779  -0.01361  -0.02889  -0.03584  -0.0005181  0.9322  -1.738
4.112e+09  -1.043  -0.1088  0.1245  0.1028  0.0181  0.02076  -1.073  -1.556
4.116e+09  -0.5296  0.9246  0.00889  0.01261  0.002195  0.02232  -2.018  0.3072
4.12e+09  0.6625  0.848  0.03831  0.04929  -0.03743  0.04164  -0.6003  1.861
4.124e+09  1.022  -0.2292  -0.07998  -0.01454  0.02754  -0.02736  1.432  1.457
4.128e+09  0.257  -0.9952  -0.04017  0.02384  -0.01938  -0.006501  1.951  -0.541
4.132e+09  -0.8009  -0.6656  0.02225  0.06135  0.03023  0.01399  0.4393  -2.115
4.136e+09  -1.006  0.4357  0.06008  0.002296  -0.04971  -0.0164  -1.576  -1.23
4.14e+09  -0.02718  0.93  0.06856  -0.08554  -0.01293  1.599e-06  -1.918  0.7897
4.144e+09  0.8451  0.4661  -0.0683  -0.01837  0.01762  0.02202  0.04804  2.018
4.148e+09  0.8028  -0.5781  0.08255  0.08242  -0.002498  0.01595  1.738  0.9743
4.152e+09  -0.2257  -0.9774  -0.0553  0.116  -0.0673  -0.03797  1.724  -1.24
4.156e+09  -0.9717  -0.2697  -0.04181  -0.01924  -0.004183  -0.02238  -0.413  -2.051
4.16e+09  -0.5934  0.789  -0.01457  0.05195  0.008495  0.01451  -2.064  -0.5654
4.164e+09  0.34  0.8991  -0.05696  -0.01035  0.02707  -0.07816  -1.413  1.667
4.168e+09  0.9439  0.07275  0.09861  -0.06224  -0.004635  0.02537  0.8301  1.999
4.172e+09  0.5082  -0.8135  0.03534  0.09759  0.05494  0.0341  2.215  0.005198
4.176e+09  -0.5231  -0.7429  0.07508  -0.004862  -0.05455  0.01422  0.9746  -1.881
4.18e+09  -0.8698  0.08887  0.08679  0.05192  0.04633  -0.0228  -1.331  -1.783
4.184e+09  -0.3166  0.8573  0.01997  0.04577  0.01741  0.007913  -2.153  0.3606
4.188e+09  0.6081  0.687  0.0178  -0.05743  0.1075  -0.02446  -0.5599  2.037
4.192e+09  0.8857  -0.2188  -0.01189  0.02184  -0.07532  -0.02427  1.593  1.336
4.196e+09  0.1954  -0.8437  0.02205  0.004342  -0.00454  0.007612  1.906  -0.8303
4.2e+09  -0.6918  -0.487  0.2327  -0.05969  -0.03082  0.0325  0.1755  -2.052
4.204e+09  -0.818  0.3405  -0.004639  -0.04747  0.01776  0.1148  -1.863  -0.8201
4.208e+09  0.0485  0.8194  0.04765  0.01081  -0.06987  0.04723  -1.542  1.271
4.212e+09  0.791  0.436  0.03387  -0.01833  0.02334  -0.0286  0.4707  1.935
4.216e+09  0.7972  -0.5389  0.07931  -0.08068  0.01293  0.007611  2.005  0.4231
4.22e+09  -0.1248  -0.9379  0.03332  0.03669  -0.03072  0.06207  1.192  -1.511
4.224e+09  -0.8236  -0.3155  -0.11  -0.02527  -0.02133  -0.09235  -0.8984  -1.812
4.228e+09  -0.6617  0.6537  0.0642  -0.0189  -0.04957  -0.0295  -2.023  0.03536
4.232e+09  0.1682  0.8184  -0.02141  0.0539  0.02657  -0.01814  -0.7892  1.705
4.236e+09  0.944  0.2151  0.02541  -0.0522  -0.04772  -0.0151  1.174  1.449
4.24e+09  0.6284  -0.7953  -0.09401  -0.01943  0.03015  -0.127  1.895  -0.3357
4.244e+09  -0.4021  -0.8269  0.06569  -0.09992  0.05728  -0.034  0.3187  -1.806
4.248e+09  -0.9424  -0.03128  0.04596  0.03708  0.01658  0.01436  -1.331  -1.144
4.252e+09  -0.4374  0.8775  0.04869  0.02357  0.005634  0.0192  -1.692  0.7372
4.256e+09  0.5571  0.7965  0.03384  0.06413  0.06837  -0.03058  -0.02246  1.752
4.26e+09  0.945  -0.09478  0.07123  0.1009  0.03083  0.0207  1.461  0.8217
4.264e+09  0.3159  -1.03  -0.03334  0.06586  -0.01514  -0.01961  1.385  -0.8563
4.268e+09  -0.7922  -0.7486  -0.03995  -0.0008204  0.03513  0.02601  -0.2251  -1.721
4.272e+09  -0.9952  0.3922  -0.01993  -0.008583  -0.02592  0.0125  -1.527  -0.5861
4.276e+09  -0.07375  1.046  0.00305  0.03513  -0.01677  0.02116  -1.238  1.091
4.28e+09  0.9473  0.6145  0.01302  0.1291  0.003563  0.0004475  0.4973  1.604
4.284e+09  0.9717  -0.5207  -0.06414  -0.03064  -0.05414  -0.004335  1.623  0.2523
4.288e+09  -0.09669  -1.09  -0.01309  -0.002932  0.01083  0.03538  1.069  -1.302
4.292e+09  -0.9838  -0.3775  0.003553  0.05612  0.04589  -0.007948  -0.6295  -1.485
4.296e+09  -0.7906  0.7625  -0.04939  -0.02696  0.02261  0.04821  -1.542  -0.02612
4.3e+09  0.3404  1.104  -0.0729  0.01336  -0.02717  0.003606  -0.7248  1.414
4.304e+09  1.067  0.1994  -0.04503  -0.00335  0.01882  -0.05873  0.9225  1.283
4.308e+09  0.5924  -0.8325  -0.05163  -0.06785  0.02326  0.01964  1.544  -0.1188
4.312e+09  -0.5193  -0.8883  -0.08578  0.04137  -0.05793  0.0181  0.6109  -1.502
4.316e+09  -1.079  0.05117  0.04203  0.03251  -0.07629  -0.03487  -1.094  -1.218
4.32e+09  -0.5256  1.012  0.05764  0.05378  0.08094  -0.001269  -1.562  0.3916
4.324e+09  0.7469  0.8724  -0.07287  0.1322  -0.00728  0.02616  -0.3071  1.662
4.328e+09  1.055  -0.243  0.02281  -0.03163  0.03431  0.05186  1.293  1.087
4.332e+09  0.1907  -1.088  -0.01212  -0.1207  -0.0294  -0.08736  1.633  -0.7415
4.336e+09  -0.8905  -0.678  0.0804  -0.03693  0.05732  0.001708  0.1191  -1.822
4.34e+09  -0.9512  0.4029  -0.01681  -0.02386  0.005085  -0.04592  -1.553  -0.8534
4.344e+09  -0.01282  1.093  0.01866  0.07788  -0.03268  -0.03088  -1.617  1.064
4.348e+09  0.8859  0.3923  0.06817  -0.1366  -0.04945  0.0247  0.1233  1.783
4.352e+09  0.8874  -0.6109  -0.02727  0.03283  -0.003703  0.03572  1.583  0.6583
4.356e+09  -0.1901  -1.002  -0.09947  -0.09876  0.008383  0.06353  1.379  -1.194
4.36e+09  -0.9923  -0.2671  -0.04172  -0.05199  0.06773  -0.05778  -0.4292  -1.695
4.364e+09  -0.6927  0.7742  -0.03542  0.05585  0.113  0.06697  -1.721  -0.2961
4.368e+09  0.3307  0.9106  0.1377  -0.04262  0.03104  0.04329  -1.036  1.507
4.372e+09  0.9903  0.0861  0.0874  -0.0136  -0.01502  -0.03124  0.7707  1.674
4.376e+09  0.5215  -0.7833  -0.03115  -0.05701  0.02552  0.03646  1.796  0.02042
4.38e+09  -0.4129  -0.7912  -0.05448  0.0732  -0.06432  0.03586  0.884  -1.67
4.384e+09  -0.9701  0.1233  -0.008272  0.03037  0.06305  -0.005872  -1.091  -1.558
4.388e+09  -0.3746  0.844  0.0433  0.06021  -0.07579  0.02305  -1.832  0.3948
4.392e+09  0.566  0.724  -0.05843  -0.0638  0.03712  0.01767  -0.551  1.784
4.396e+09  0.8722  -0.2615  0.03345  -0.004472  0.02464  -0.03479  1.356  1.322
4.4e+09  0.1845  -0.9214  0.1119  -0.04898  0.01313  0.02982  1.66  -0.5181
4.404e+09  -0.6764  -0.5951  -0.1419  0.08698  -0.01434  -0.05676  0.1621  -1.928
4.408e+09  -0.8541  0.3023  0.0139  0.05615  0.01746  0.03434  -1.581  -1.055
4.412e+09  -0.0898  0.8692  -0.03257  -0.0443  -0.02335  -0.09468  -1.665  1.039
4.416e+09  0.7651  0.4813  -0.005581  -0.01444  0.03604  0.01956  0.2461  1.822
4.42e+09  0.7493  -0.4661  0.06872  -0.05307  -0.04731  -0.0144  1.72  0.628
4.424e+09  -0.09983  -0.8783  -0.05708  0.009493  0.02422  -0.03308  1.257  -1.28
4.428e+09  -0.8003  -0.2835  0.006626  0.0608  -0.006335  -0.01738  -0.6014  -1.619
4.432e+09  -0.6502  0.5189  0.01779  0.07526  -0.04809  0.01511  -1.658  -0.1889
4.436e+09  0.2591  0.7799  0.1167  -0.02501  -0.0005929  -0.01412  -0.9304  1.436
4.44e+09  0.7895  0.1621  -0.06766  -0.09882  -0.008645  0.05824  0.8519  1.525
4.444e+09  0.5217  -0.6488  0.004366  -0.02216  0.00847  -0.0005115  1.719  -0.1169
4.448e+09  -0.4279  -0.7157  -0.03468  -0.0816  -0.01692  -0.01612  0.6456  -1.508
4.452e+09  -0.8108  -0.0593  0.005212  -0.01325  -0.02708  -0.008493  -1.056  -1.285
4.456e+09  -0.4074  0.7359  -0.08813  0.000146  -0.06682  -0.007726  -1.565  0.4584
4.46e+09  0.5333  0.7102  -0.03747  -0.007112  -0.05743  0.03246  -0.3682  1.703
4.464e+09  0.8863  -0.1883  -0.01585  0.04776  0.05476  0.006233  1.202  0.9231
4.468e+09  0.2498  -0.9054  -0.02507  0.01341  0.05227  0.01244  1.375  -0.6729
4.472e+09  -0.6506  -0.5566  -0.005992  -0.03887  0.01062  0.01429  0.02606  -1.429
4.476e+09  -0.8066  0.3149  -0.03461  0.01512  -0.041  -0.001763  -1.382  -0.6975
4.48e+09  -0.08118  0.8674  -0.06319  -0.07698  0.05924  0.09383  -1.2  0.8099
4.484e+09  0.7952  0.4816  -0.06116  -0.019  0.006218  -0.02239  0.3044  1.486
4.488e+09  0.7081  -0.5576  -0.07514  -0.1008  0.05268  -0.02115  1.395  0.3331
4.492e+09  -0.1234  -0.8935  -0.007142  -0.05207  0.002738  -0.00781  0.9261  -1.046
4.496e+09  -0.7885  -0.3131  -0.03026  0.06473  -0.03705  -0.04294  -0.5497  -1.261
4.5e+09  -0.7022  0.6009  0.04272  0.2277  -0.0248  -0.08103  -1.542  0.05721
4.504e+09  0.2571  0.8287  -0.128  -0.05371  -0.03327  -0.005937  -0.7915  1.195
4.508e+09  0.8358  0.09795  -0.002804  0.0005891  0.02415  -0.01307  0.7453  1.191
4.512e+09  0.4859  -0.6986  0.05917  -0.05401  -0.06195  -0.02482  1.362  -0.09434
4.516e+09  -0.4131  -0.7617  -0.03675  -0.09236  -0.0444  0.001184  0.4801  -1.142
4.52e+09  -0.8318  -0.02188  0.0306  -0.09418  0.03184  -0.01076  -0.883  -1.052
4.524e+09  -0.323  0.7549  0.002784  -0.001639  -0.01361  0.01142  -1.337  0.3971
4.528e+09  0.5741  0.6375  -0.09489  0.02445  -0.002813  -0.02373  -0.3502  1.318
4.532e+09  0.8303  -0.154  -0.0317  0.06999  -0.09489  0.004995  0.9842  0.9182
4.536e+09  0.1616  -0.7643  -0.002235  0.04949  0.00662  -0.04208  1.275  -0.4961
4.54e+09  -0.6322  -0.5211  0.02725  0.01403  0.01003  -0.05035  0.0985  -1.213
4.544e+09  -0.7251  0.3078  0.02638  0.03691  0.01777  0.06404  -1.062  -0.6731
4.548e+09  -0.04888  0.7442  0.008774  0.03083  -0.02895  -0.000343  -0.9995  0.6366
4.552e+09  0.6451  0.3755  -0.02329  -0.04744  -0.003109  0.04844  0.1385  1.281
4.556e+09  0.655  -0.4516  0.08011  -0.02531  0.01568  0.01441  1.206  0.453
4.56e+09  -0.07471  -0.8123  0.07116  -0.08934  -0.06108  -0.02811  0.9761  -0.8506
4.564e+09  -0.6995  -0.3186  -0.0609  -0.07077  -0.01107  -0.01242  -0.3795  -1.291
4.568e+09  -0.5792  0.4921  -0.03193  -0.02943  0.03312  -0.04824  -1.379  -0.2985
4.572e+09  0.1129  0.7801  -0.01403  0.04015  -0.01872  0.04438  -0.8303  1.012
4.576e+09  0.6864  0.2189  -0.06565  0.04658  -0.04389  0.04228  0.5686  1.207
4.58e+09  0.5408  -0.5033  -0.01949  0.05609  -0.03898  -0.048  1.47  0.1296
4.584e+09  -0.2207  -0.7613  -0.02426  -0.04058  -0.04264  -0.05182  0.6634  -1.171
4.588e+09  -0.7778  -0.1369  0.03602  0.007166  0.03635  0.03985  -0.8321  -1.122
4.592e+09  -0.4037  0.6582  0.01205  -0.1025  0.006004  -0.02753  -1.241  0.2153
4.596e+09  0.3793  0.607  -0.04112  -0.01976  -0.03774  -0.03245  -0.2971  1.4
4.6e+09  0.732  -0.001949  -0.02054  -0.1161  0.03038  -0.02058  1.113  0.9493
4.604e+09  0.3977  -0.6412  0.01074  0.01559  0.07217  -0.03604  1.386  -0.5765
4.608e+09  -0.4838  -0.6603  -0.07156  -0.0208  0.08396  -0.03499  0.1316  -1.519
4.612e+09  -0.7562  0.1119  0.008827  -0.01511  -0.03437  -0.01266  -1.255  -0.8389
4.616e+09  -0.2997  0.7189  -0.1371  0.08755  -0.03154  0.01348  -1.275  0.7647
4.62e+09  0.4931  0.5578  -0.08506  0.05902  0.03204  0.02366  0.1988  1.564
4.624e+09  0.7712  -0.1667  0.06294  0.0008088  -0.03029  0.02722  1.311  0.5419
4.628e+09  0.223  -0.7654  -0.02295  0.006881  0.01684  -0.0335  1.005  -0.9469
4.632e+09  -0.6381  -0.5156  0.002196  -0.03008  0.02994  0.08532  -0.4054  -1.268
4.636e+09  -0.7848  0.3241  0.04889  0.04092  0.01053  -0.03098  -1.329  -0.1462
4.64e+09  -0.1151  0.8265  0.06794  -0.003671  0.0008387  -0.02365  -0.6958  1.124
4.644e+09  0.7557  0.4585  -0.04629  -0.01716  -0.06821  -0.00955  0.6528  1.063
4.648e+09  0.6943  -0.4027  0.005665  0.0006449  -0.03779  -0.02053  1.3  -0.141
4.652e+09  -0.006961  -0.806  0.02558  0.04653  0.01181  -0.03924  0.517  -1.264
4.656e+09  -0.7643  -0.3941  -0.01217  0.03309  -0.0004131  0.008573  -0.8556  -0.9337
4.66e+09  -0.7199  0.5639  0.06635  -0.01993  0.07938  0.003779  -1.344  0.3028
4.664e+09  0.1834  0.8499  0.07269  -1.515e-05  -0.04111  0.04902  -0.2242  1.338
4.668e+09  0.8095  0.1826  -0.0395  0.0007353  -0.03737  0.03145  1.026  0.8162
4.672e+09  0.5281  -0.6393  -0.09964  0.01879  0.001607  -0.03686  1.164  -0.463
4.676e+09  -0.3241  -0.803  -0.03058  0.009387  -0.01899  0.03837  0.02367  -1.27
4.68e+09  -0.8251  -0.02639  0.04625  0.05887  -0.0411  -0.02524  -0.9827  -0.6756
4.684e+09  -0.5282  0.7003  0.03536  -0.001118  -0.001907  -0.04184  -1.058  0.6376
4.688e+09  0.5011  0.7611  0.04075  -0.03009  0.006029  -0.01952  0.1727  1.251
4.692e+09  0.8785  -0.08837  0.02718  0.01842  0.04221  0.007699  1.127  0.4574
4.696e+09  0.3304  -0.7982  -0.004032  0.01409  0.01185  -0.005793  0.8515  -0.7967
4.7e+09  -0.5581  -0.635  -0.04595  0.0194  0.01094  -0.007532  -0.3368  -1.127
4.704e+09  -0.8222  0.2828  -0.006782  -0.0526  0.01145  -0.02213  -1.131  -0.2206
4.708e+09  -0.1247  0.867  0.05738  0.04104  -0.01008  -0.01582  -0.6547  0.8367
4.712e+09  0.6512  0.4736  0.0322  0.03852  -0.06776  -0.005887  0.4811  1.039
4.716e+09  0.7919  -0.4294  0.06335  -0.02614  -0.03579  -0.01866  1.182  0.1104
4.72e+09  -0.1716  -0.7903  -0.0261  0.1125  -0.01743  0.008357  0.4637  -0.9082
4.724e+09  -0.7655  -0.3357  -0.08622  -0.03159  -0.0002951  0.005092  -0.6219  -0.8963
4.728e+09  -0.5966  0.5274  -0.06112  0.02834  0.0101  0.008077  -1.019  0.1399
4.732e+09  0.2629  0.7322  0.007495  -0.0645  0.07105  0.0223  -0.3975  1.017
4.736e+09  0.7782  0.08928  -0.003526  0.03506  0.01163  0.0587  0.7398  0.8687
4.74e+09  0.4125  -0.6174  -0.08121  -0.03015  0.01208  -0.009345  0.9553  -0.2179
4.744e+09  -0.3399  -0.6373  -0.02692  -0.08201  -0.01996  0.0108  0.2272  -1.111
4.748e+09  -0.6574  0.03885  -0.02106  -0.02486  -0.0008261  -0.02726  -0.8665  -0.722
4.752e+09  -0.3107  0.6649  -0.007905  -0.02741  0.01961  0.02564  -1.006  0.4198
4.756e+09  0.4659  0.5335  -0.03317  0.03844  0.01006  -0.01767  -0.08002  1.106
4.76e+09  0.6334  -0.1624  0.01802  -0.005413  -0.03818  0.0328  0.9005  0.5832
4.764e+09  0.1973  -0.6034  -0.02038  -0.02609  -0.03626  -0.05023  1.058  -0.5536
4.768e+09  -0.4455  -0.41  -0.001193  -0.0335  -0.005384  0.01088  0.01144  -1.111
4.772e+09  -0.5089  0.2164  0.002414  -0.05083  -0.003621  -0.0251  -1.079  -0.4194
4.776e+09  -0.02924  0.6412  -0.04003  -0.001912  0.01212  0.06212  -0.8194  0.7401
4.78e+09  0.4732  0.265  0.03067  0.03814  0.02878  0.007398  0.1691  1.149
4.784e+09  0.467  -0.2836  0.0315  0.02167  0.00511  0.009947  1.096  0.3524
4.788e+09  -0.06679  -0.5779  -0.03437  0.1043  -0.008535  0.007525  0.7555  -0.8222
4.792e+09  -0.5621  -0.2477  0.03837  0.1056  0.01495  -0.007472  -0.4635  -1.077
4.796e+09  -0.4816  0.4014  0.06857  0.01078  0.03714  0.03423  -1.18  -0.06215
4.8e+09  0.09804  0.566  -0.01474  0.01354  -0.007524  0.01285  -0.5406  1.038
4.804e+09  0.5204  0.1494  -0.06888  -0.07299  -0.02554  0.02678  0.6425  1.018
4.808e+09  0.3841  -0.4177  0.0241  0.1087  0.03124  -0.002834  1.192  -0.2009
4.812e+09  -0.1327  -0.5058  0.001961  0.04063  0.03682  -0.01771  0.3413  -1.108
4.816e+09  -0.5289  -0.08362  0.03066  0.01174  0.04082  -0.02837  -0.9417  -0.9154
4.82e+09  -0.3206  0.4342  -0.03464  0.02775  0.01287  -0.03937  -1.197  0.5305
4.824e+09  0.2228  0.5029  0.04995  -0.04887  -0.06497  -0.002268  -0.1022  1.337
4.828e+09  0.5366  -0.02278  0.03392  -0.006259  -0.03351  -0.01925  1.128  0.6249
4.832e+09  0.2958  -0.48  -0.03517  -0.003761  0.02504  -0.0131  1.151  -0.7382
4.836e+09  -0.2928  -0.451  -0.04495  -0.04179  0.03926  -0.002423  -0.1767  -1.272
4.84e+09  -0.55  0.04377  -0.08449  0.01425  -0.03337  -0.02586  -1.297  -0.3849
4.844e+09  -0.1851  0.5066  0.02096  0.03745  0.01057  -0.001934  -0.8665  0.9352
4.848e+09  0.4249  0.4589  -0.04633  -0.0532  0.0266  -0.009022  0.4908  1.282
4.852e+09  0.5978  -0.2095  0.06255  0.02468  -0.02064  0.007048  1.267  0.2001
4.856e+09  0.1193  -0.6118  0.02175  -0.04863  -0.04364  -0.009043  0.618  -1.027
4.86e+09  -0.4932  -0.3771  -0.05096  -0.0449  0.04651  0.06067  -0.6343  -0.9628
4.864e+09  -0.587  0.2677  0.0366  -0.0291  0.03539  0.03146  -1.214  0.1317
4.868e+09  -0.03663  0.6772  0.06684  -0.04736  -0.001295  0.03743  -0.3004  0.9725
4.872e+09  0.6034  0.3509  -0.03696  -0.0847  -0.01148  -1.63e-05  0.814  0.7809
4.876e+09  0.6267  -0.3654  -0.04821  -0.009807  0.02222  -0.03691  1.067  -0.3334
4.88e+09  -0.05976  -0.7471  -0.04111  0.03783  0.06266  -0.05004  0.1556  -1.127
4.884e+09  -0.6637  -0.3484  -0.01683  0.05294  0.04581  0.03022  -0.8566  -0.588
4.888e+09  -0.5738  0.4756  -0.04957  0.08255  -0.009169  -0.04193  -0.863  0.4824
4.892e+09  0.1506  0.7298  0.04535  -0.05472  -0.005902  -0.03975  -7.793e-05  1.055
4.896e+09  0.7438  0.1935  0.08023  0.01272  0.003766  0.03038  0.8982  0.451
4.9e+09  0.5382  -0.6574  0.01188  -0.03467  -0.009961  0.0366  0.738  -0.5428
4.904e+09  -0.3454  -0.7523  -0.03801  0.008335  0.0237  0.05481  -0.07043  -0.9314
4.908e+09  -0.7972  0.02171  -0.04126  -0.0468  0.04713  0.02775  -0.8457  -0.265
4.912e+09  -0.4142  0.699  0.03034  0.0447  0.06162  -0.02553  -0.713  0.5541
4.916e+09  0.4638  0.6871  0.04671  0.02796  0.002609  0.03688  0.2628  0.8545
4.92e+09  0.8257  -0.1589  -0.003866  -0.05278  -0.001739  0.01527  0.8503  0.2142
4.924e+09  0.2273  -0.834  -0.005487  -0.02641  0.02169  -0.0167  0.5294  -0.5931
4.928e+09  -0.6487  -0.5646  0.01864  0.05191  0.02949  -0.03949  -0.2887  -0.8252
4.932e+09  -0.7819  0.3112  -0.09437  0.0647  -0.03228  0.002485  -0.8229  -0.08449
4.936e+09  -0.09022  0.8144  -0.04852  0.03224  0.0374  -0.01253  -0.4858  0.7713
4.94e+09  0.7519  0.4367  0.008152  -0.00241  -0.005824  -0.03201  0.4346  0.696
4.944e+09  0.7149  -0.4083  -0.02097  0.002565  0.02186  -0.007778  0.9321  0.01757
4.948e+09  -0.09832  -0.7823  0.01728  0.004691  -0.01716  -0.03145  0.3263  -0.7735
4.952e+09  -0.7254  -0.3035  -0.01122  0.01742  -0.01733  0.008241  -0.4969  -0.6472
4.956e+09  -0.5702  0.4985  0.02752  0.02652  0.01275  0.04347  -0.8333  0.125
4.96e+09  0.2562  0.8215  0.05358  -0.02661  -0.02027  -0.007479  -0.2039  0.8582
4.964e+09  0.7129  0.1454  0.02829  -0.04924  0.03279  0.01953  0.5988  0.4766
4.968e+09  0.4537  -0.6016  0.0592  0.01878  -0.01435  0.003292  0.8222  -0.1835
4.972e+09  -0.3406  -0.6049  0.06552  -0.01857  0.01835  0.01494  0.07128  -0.8189
4.976e+09  -0.6915  -0.003079  -0.01952  0.008232  -0.02276  0.00778  -0.708  -0.4758
4.98e+09  -0.3109  0.6265  -0.04557  -0.0944  -0.05232  0.001665  -0.7407  0.3518
4.984e+09  0.3733  0.5715  0.01839  -0.05406  0.03939  -0.02709  -0.1147  0.883
