# Hz S RI R 50
4e+09  -1.754  -0.9412  4.444  1.681  0.3348  -2.219  0.1443  2.633
4.004e+09  0.484  0.8349  -0.01069  -0.02471  -0.006628  0.02651  -1.701  1.792
4.008e+09  0.9575  -0.08151  -0.03281  -0.003461  -0.01335  -0.01602  0.858  2.235
4.012e+09  0.36  -0.922  -0.04927  0.03096  -0.03066  0.04547  2.427  0.1836
4.016e+09  -0.6139  -0.5888  -0.1094  -0.003757  -0.02074  -0.02829  1.111  -2.015
4.02e+09  -0.9731  0.1357  -0.009025  -0.0921  0.02266  -0.04159  -1.242  -1.994
4.024e+09  -0.1149  0.9317  -0.005698  -0.02201  0.04236  -0.03472  -2.085  0.1162
4.028e+09  0.7598  0.5623  -0.03114  0.02555  0.04896  0.02888  -0.7675  2.065
4.032e+09  0.9233  -0.4321  0.09654  0.007113  -0.03851  0.04585  1.435  1.7
4.036e+09  0.07238  -0.9786  -0.08359  -0.07442  0.001285  0.06699  2.227  -0.5562
4.04e+09  -0.9406  -0.5194  -0.05791  0.00435  -0.06603  -0.0003266  0.4508  -2.095
4.044e+09  -0.789  0.598  0.02541  -0.05335  -0.05451  0.03256  -1.481  -1.356
4.048e+09  0.1659  0.9214  -0.0252  5.338e-05  -0.04322  0.1679  -1.921  0.6929
4.052e+09  0.9473  0.2572  0.007477  -0.04876  0.08385  0.01034  -0.1425  2.199
4.056e+09  0.6037  -0.736  -0.0002571  -0.08255  0.04755  -0.01251  1.842  1.174
4.06e+09  -0.2685  -0.9577  -0.08874  -0.06401  -0.01719  -0.03239  1.787  -0.9377
4.064e+09  -0.9652  -0.04949  0.02621  -0.01902  0.02922  0.09923  -0.1328  -2.052
4.068e+09  -0.462  0.8176  -0.02403  0.1006  0.01896  0.01439  -1.816  -0.8964
4.072e+09  0.5403  0.8896  -0.01734  -0.02847  0.005678  -0.06215  -1.646  1.262
4.076e+09  0.9973  -0.1024  -0.119  0.06072  0.06391  -0.01097  0.2733  1.939
4.08e+09  0.3518  -0.9578  0.05462  -0.07795  0.04034  -0.02824  1.855  0.661
4.084e+09  -0.6644  -0.6808  0.04938  0.1054  -0.06827  -0.0003649  1.354  -1.474
4.088e+09  -0.9795  0.2383  -0.007375  0.03415  -0.0347  -0.01271  -0.4847  -1.912
4.092e+09  -0.1724  1.036  -0.04262  0.003155  0.0007431  -0.06747  -1.915  -0.4285
4.096e+09  0.8472  0.5547  -0.02226  -0.08792  0.07539  0.0264  -1.209  1.566
4.1e+09  0.8665  -0.4345  -0.09476  0.05696  0.03148  -0.00491  0.8549  1.829
4.104e+09  -0.01933  -1.007  -0.01971  -0.03005  0.05699  -0.02091  2.052  0.1632
4.108e+09  -0.918  -0.333  0.07518  -0.01906  0.03777  -0.03287  0.9573  -1.741
4.112e+09  -0.6926  0.6015  0.0578  0.01215  0.02276  -0.04292  -0.9689  -1.662
4.116e+09  0.2508  0.8624  0.09469  0.03348  -0.005378  -0.01175  -2.009  0.176
4.12e+09  0.8432  0.1025  -0.03133  0.03012  0.01337  -0.05333  -0.7586  1.943
4.124e+09  0.5785  -0.7072  0.04036  0.004591  0.03714  -0.03957  1.301  1.536
4.128e+09  -0.4231  -0.8202  0.02606  -0.002593  0.0002142  0.01951  1.907  -0.4755
4.132e+09  -0.8588  0.02763  -0.01234  0.01004  0.008485  -0.009388  0.4588  -1.955
4.136e+09  -0.4001  0.728  -0.02564  -0.07895  -0.03815  -0.0414  -1.559  -1.25
4.14e+09  0.4788  0.6438  0.03987  -0.07523  -0.06455  -0.006769  -1.778  0.7927
4.144e+09  0.8124  -0.1458  -0.05218  0.04746  -0.04613  0.01094  -0.0781  2.071
4.148e+09  0.2722  -0.8416  -0.02773  0.04735  0.06914  -0.004929  1.83  1.087
4.152e+09  -0.56  -0.5257  -0.02128  0.06655  0.03869  0.02989  1.717  -1.23
4.156e+09  -0.6958  0.3019  0.009425  0.07943  -0.02753  -0.03772  -0.3946  -2.142
4.16e+09  -0.1202  0.8624  0.08352  0.04462  0.0216  -0.02414  -2.004  -0.606
4.164e+09  0.6356  0.4706  0.04364  -0.01406  0.007374  -0.01253  -1.354  1.557
4.168e+09  0.6865  -0.3793  0.01724  -0.09459  0.03272  0.02143  0.9093  2.065
4.172e+09  -0.03359  -0.7776  -0.04356  -0.05312  -0.002405  0.004514  2.2  0.2278
4.176e+09  -0.7046  -0.3155  0.03254  -0.03229  -0.05215  -0.04106  1.124  -1.857
4.18e+09  -0.6039  0.5078  -0.02928  0.03534  0.02098  -0.03018  -1.078  -1.896
4.184e+09  0.09589  0.7428  -0.03869  -0.03537  -0.03286  0.02478  -2.206  0.4404
4.188e+09  0.7635  0.2604  0.01018  -0.01394  -0.06041  -0.02981  -0.649  2.083
4.192e+09  0.6013  -0.5496  0.06507  -0.01448  -0.06932  0.05361  1.613  1.421
4.196e+09  -0.2437  -0.7401  -0.06438  0.0374  -0.0196  -0.05466  1.934  -0.8288
4.2e+09  -0.7394  -0.1064  0.1775  -0.2725  0.1155  -0.01371  0.2236  -2.309
4.204e+09  -0.5172  0.6416  -0.06925  -0.06338  0.06163  -0.01412  -1.935  -0.8988
4.208e+09  0.2721  0.7122  0.1467  -0.08247  -0.0493  0.01755  -1.53  1.175
4.212e+09  0.8046  0.07515  -0.04059  0.03584  0.01254  -0.01782  0.4304  2.118
4.216e+09  0.3843  -0.7458  -0.1201  0.08723  0.006649  -0.001934  2.011  0.5458
4.22e+09  -0.4585  -0.6745  0.04602  0.07055  0.0004353  -0.01819  1.326  -1.547
4.224e+09  -0.841  0.1236  -0.03493  0.03247  0.003079  0.02413  -0.8034  -1.748
4.228e+09  -0.277  0.8894  -0.03774  -0.02012  0.02043  0.02219  -1.965  0.09818
4.232e+09  0.5905  0.6614  -0.002048  0.006213  0.03176  -0.004773  -0.8926  1.777
4.236e+09  0.8464  -0.2795  0.02049  0.09657  0.02558  -0.03061  1.082  1.417
4.24e+09  0.1002  -0.8488  -0.05021  -0.2052  0.0358  -0.08606  2.012  -0.3239
4.244e+09  -0.6794  -0.5362  0.01231  0.0547  0.0355  -0.0469  0.5152  -1.825
4.248e+09  -0.8904  0.398  -0.03424  0.02153  -0.04191  -0.03756  -1.399  -1.183
4.252e+09  -0.05867  0.9356  0.08416  -0.02696  0.002309  0.006232  -1.678  0.7668
4.256e+09  0.7797  0.4325  -0.03506  0.05725  -0.04734  0.006688  -0.07601  1.82
4.26e+09  0.7424  -0.5751  0.02241  0.01023  0.064  0.01655  1.489  0.9124
4.264e+09  -0.1066  -0.8912  0.001531  0.1233  0.0074  0.02956  1.383  -0.931
4.268e+09  -0.9381  -0.2606  -0.008143  -0.01359  -0.003315  0.0942  -0.2262  -1.652
4.272e+09  -0.6114  0.6683  -0.02898  0.04448  -0.02001  0.05042  -1.573  -0.5141
4.276e+09  0.2821  0.9578  -0.03084  0.01885  -0.03973  0.009467  -1.164  1.091
4.28e+09  0.98  0.1032  0.01994  -0.02023  0.03778  -0.02575  0.5375  1.635
4.284e+09  0.5408  -0.8483  0.05253  0.01368  -0.02977  -0.002389  1.563  0.3238
4.288e+09  -0.4663  -0.8247  0.1219  0.00369  0.01553  -0.01115  1.039  -1.304
4.292e+09  -1.031  0.07426  0.02027  0.01379  0.04571  0.04364  -0.6595  -1.523
4.296e+09  -0.3601  0.959  -0.006246  -0.003195  -0.02386  0.0142  -1.661  -0.07799
4.3e+09  0.6174  0.7787  0.0151  0.1125  0.03602  0.01269  -0.6891  1.401
4.304e+09  0.8893  -0.2686  -0.01214  0.06013  0.07159  -0.08783  0.935  1.333
4.308e+09  0.2249  -0.9339  0.03674  0.02289  -0.0224  -0.01331  1.648  -0.1145
4.312e+09  -0.7736  -0.587  0.02016  0.02534  -0.007015  0.02279  0.5549  -1.396
4.316e+09  -0.9088  0.4302  0.008113  0.1156  -0.07533  0.03469  -0.9817  -1.232
4.32e+09  -0.004183  0.9459  0.1351  0.06028  0.01527  0.02209  -1.631  0.2931
4.324e+09  0.8287  0.4149  0.02696  -0.01108  0.03483  -0.01511  -0.3331  1.617
4.328e+09  0.813  -0.5154  0.06312  -0.006987  0.03884  0.05796  1.274  1.12
4.332e+09  -0.06478  -0.9437  0.01912  -0.07258  -0.02907  0.06529  1.645  -0.6196
4.336e+09  -0.8149  -0.3924  -0.02347  0.05829  0.001557  -0.07908  0.1159  -1.824
4.34e+09  -0.6741  0.6783  -0.02936  -0.05746  0.007004  -0.04866  -1.584  -0.9926
4.344e+09  0.2916  0.9165  0.03288  0.02639  -0.04245  -0.05017  -1.596  0.9202
4.348e+09  0.9555  0.1176  -0.03172  -0.004016  0.04361  -0.004702  0.02017  1.886
4.352e+09  0.4952  -0.7117  0.07567  0.03715  0.009607  0.08273  1.636  0.6827
4.356e+09  -0.4083  -0.785  0.01468  0.03123  -0.009821  0.002046  1.375  -1.147
4.36e+09  -0.8289  0.02323  0.1252  -0.00118  -0.02565  0.03341  -0.436  -1.681
4.364e+09  -0.3042  0.8285  0.07378  0.003903  0.03836  -0.05325  -1.752  -0.3222
4.368e+09  0.5081  0.6698  0.04187  0.04505  0.0172  -0.007366  -1.152  1.379
4.372e+09  0.8033  -0.1699  0.02683  0.02197  0.02641  -0.01086  0.7091  1.679
4.376e+09  0.2175  -0.8297  -0.02094  0.01573  -0.05251  0.04079  1.739  0.06535
4.38e+09  -0.5698  -0.57  -0.06345  0.03273  -0.009797  0.006664  0.9446  -1.661
4.384e+09  -0.7678  0.2806  -0.05556  0.08682  0.002253  0.02392  -1.1  -1.646
4.388e+09  -0.1378  0.7932  -0.03548  0.03187  -0.03391  -0.01885  -1.739  0.2815
4.392e+09  0.6537  0.5055  -0.03791  -0.03116  0.02061  0.01926  -0.7147  1.765
4.396e+09  0.7689  -0.4118  -0.0456  0.04931  0.02549  0.02682  1.249  1.401
4.4e+09  0.1191  -0.7506  -0.1396  0.1343  0.01313  0.009562  1.91  -0.6643
4.404e+09  -0.7898  -0.3407  -0.06502  -0.0264  -0.04376  0.03695  0.3345  -1.86
4.408e+09  -0.6193  0.501  0.1362  -0.06935  0.04054  0.03082  -1.532  -1.035
4.412e+09  0.1277  0.728  -0.02163  -0.06153  0.04636  0.03961  -1.622  0.946
4.416e+09  0.8007  0.1958  -0.05613  -0.01513  -0.01086  -0.05484  0.1819  1.766
4.42e+09  0.4996  -0.5796  0.007932  0.02729  -0.05794  -0.005876  1.682  0.6443
4.424e+09  -0.24  -0.6943  -0.05728  0.07234  0.02036  0.001608  1.318  -1.196
4.428e+09  -0.7659  -0.07165  -0.002209  0.04385  -0.05221  0.02891  -0.5488  -1.738
4.432e+09  -0.3799  0.6286  0.0481  -0.08214  -0.005884  0.02029  -1.773  -0.2233
4.436e+09  0.3318  0.656  0.03499  -0.03229  -0.03777  -0.03026  -1.01  1.415
4.44e+09  0.7543  -0.003705  0.01121  -0.03291  -0.02234  0.02525  0.8075  1.389
4.444e+09  0.342  -0.6752  -0.05976  -0.01632  -0.01989  0.02816  1.628  -0.08445
4.448e+09  -0.4754  -0.564  -0.04251  -0.009937  -0.01883  0.02975  0.7065  -1.53
4.452e+09  -0.7811  0.1879  -0.0638  0.07236  -0.02756  0.03247  -1.088  -1.327
4.456e+09  -0.2089  0.7654  -0.01327  0.02104  -0.06284  0.03401  -1.587  0.4247
4.46e+09  0.6543  0.5251  -0.05495  -0.06115  -0.03927  -0.02777  -0.3257  1.523
4.464e+09  0.6319  -0.358  -0.04406  -0.07198  0.0456  -0.03963  1.316  1.067
4.468e+09  0.009974  -0.7417  -0.008741  -0.07899  -0.00813  -0.004116  1.479  -0.6153
4.472e+09  -0.6374  -0.3642  -0.06258  -0.02909  -0.06114  0.07205  0.009636  -1.496
4.476e+09  -0.6909  0.4952  -0.04654  -0.08872  -0.02834  -0.001431  -1.283  -0.7194
4.48e+09  0.08574  0.804  0.06688  0.01182  -0.03782  -0.001188  -1.077  0.8289
4.484e+09  0.7951  0.2678  -0.0007633  0.06303  0.002971  -0.005344  0.3031  1.471
4.488e+09  0.5956  -0.6129  0.0469  -0.06552  0.08499  0.06236  1.356  0.4272
4.492e+09  -0.2623  -0.8358  0.008975  -0.06873  -0.061  0.02933  1  -1.021
4.496e+09  -0.7728  -0.1538  -0.04551  0.02869  -0.01916  -0.004479  -0.5539  -1.266
4.5e+09  -0.3834  0.6963  -0.08323  -0.2062  -0.04444  0.0197  -1.506  -0.3055
4.504e+09  0.3617  0.6607  -0.006121  0.02568  0.05372  0.02659  -0.7585  1.105
4.508e+09  0.7069  -0.01997  -0.00694  -0.01613  0.008803  0.01533  0.5878  1.24
4.512e+09  0.2741  -0.6526  0.06892  -0.01378  -0.02174  -0.02531  1.469  -0.1083
4.516e+09  -0.4528  -0.5514  0.03557  0.03177  -0.06041  0.02485  0.5692  -1.245
4.52e+09  -0.7139  0.1819  0.05611  0.02785  -0.01976  0.03685  -0.8572  -1.026
4.524e+09  -0.1226  0.7518  0.04655  0.07879  -0.004308  0.03562  -1.312  0.3102
4.528e+09  0.5754  0.4545  -0.02333  0.02557  -0.04807  0.01369  -0.3507  1.286
4.532e+09  0.6641  -0.2871  -0.04164  0.07926  0.03356  0.0242  0.9109  0.8652
4.536e+09  0.01982  -0.7094  0.009348  0.005737  -0.03954  0.006726  1.244  -0.4971
4.54e+09  -0.5998  -0.3686  0.05362  0.05934  0.02927  -0.002915  0.1117  -1.288
4.544e+09  -0.6322  0.4005  0.06511  0.02495  -0.02757  0.05194  -1.032  -0.7811
4.548e+09  0.08047  0.6941  0.0662  -0.03331  -0.002319  -0.01471  -1.067  0.6218
4.552e+09  0.7015  0.2784  -0.07449  0.03316  0.02123  0.02099  0.1125  1.367
4.556e+09  0.4972  -0.475  -0.002857  -0.02961  -0.01029  0.01905  1.118  0.5375
4.56e+09  -0.2385  -0.729  -0.1089  0.07627  -0.004705  -0.007435  0.9744  -0.881
4.564e+09  -0.6196  -0.1804  0.001132  0.01961  0.02075  -0.05146  -0.359  -1.379
4.568e+09  -0.4491  0.5084  0.02266  -0.05983  -0.001506  -0.002755  -1.353  -0.2629
4.572e+09  0.2186  0.6491  -0.03648  -0.01977  -0.000945  0.02036  -0.8763  1.11
4.576e+09  0.6734  0.07494  -0.06646  0.101  -0.02011  0.004178  0.5373  1.266
4.58e+09  0.3958  -0.5939  -0.006561  0.07578  0.033  0.00735  1.389  0.04179
4.584e+09  -0.3041  -0.629  0.07254  0.03642  -0.03758  0.03059  0.6413  -1.127
4.588e+09  -0.6741  0.01106  0.1293  0.0007056  0.02328  0.0145  -0.7967  -1.06
4.592e+09  -0.3481  0.6216  0.04447  -0.04428  0.01483  0.03972  -1.356  0.2474
4.596e+09  0.3782  0.5616  0.02651  -0.03873  0.005394  -0.04316  -0.3999  1.285
4.6e+09  0.6715  -0.1125  0.01577  -0.02026  -0.05371  0.03787  1.046  1.056
4.604e+09  0.2579  -0.6079  0.01273  -0.08208  0.008894  0.01511  1.315  -0.5533
4.608e+09  -0.4548  -0.4936  0.03293  0.0148  -0.02702  0.03958  0.08526  -1.497
4.612e+09  -0.677  0.1769  0.02659  -0.03247  0.009512  0.01723  -1.171  -0.8625
4.616e+09  -0.1185  0.6894  -0.08608  0.01331  0.03739  -0.02997  -1.164  0.7961
4.62e+09  0.5328  0.4831  -0.006265  0.03936  -0.008794  0.04891  0.1631  1.495
4.624e+09  0.7129  -0.2521  0.03088  0.08963  -0.02527  0.009148  1.309  0.5582
4.628e+09  0.05551  -0.7163  0.06854  0.07511  -0.005776  0.03422  1.028  -0.9654
4.632e+09  -0.5757  -0.4288  0.08144  -0.02964  0.01879  0.02579  -0.3213  -1.304
4.636e+09  -0.6621  0.3509  0.05509  0.002567  -0.02499  0.03389  -1.406  -0.2104
4.64e+09  0.08533  0.7537  -0.02534  -0.04908  0.009067  -0.0186  -0.7399  1.044
4.644e+09  0.6532  0.3329  0.05718  0.0162  -0.00416  0.01088  0.5711  1.173
4.648e+09  0.5841  -0.4087  0.01163  0.01381  0.02431  0.01757  1.363  -0.01073
4.652e+09  -0.09013  -0.8031  0.0123  -0.009774  -0.03122  -0.008834  0.563  -1.205
4.656e+09  -0.7684  -0.2358  0.05517  0.02555  0.0125  -0.006642  -0.9156  -1.045
4.66e+09  -0.5193  0.5805  -0.05805  -0.03905  0.0007267  0.009363  -1.345  0.3015
4.664e+09  0.2522  0.7067  -0.03724  -0.02396  0.05895  0.03977  -0.3627  1.325
4.668e+09  0.8335  0.1203  0.01473  0.04573  0.03339  -0.03322  0.9464  0.8422
4.672e+09  0.4556  -0.6857  0.08067  0.01229  0.01247  0.03933  1.249  -0.4173
4.676e+09  -0.361  -0.6773  0.02463  -0.0277  -0.02204  0.03199  0.1284  -1.344
4.68e+09  -0.7752  -0.0007838  0.01666  -0.002985  0.04135  0.03898  -1.06  -0.6227
4.684e+09  -0.3217  0.6739  0.08416  -0.03263  0.03437  -0.01038  -1.043  0.5948
4.688e+09  0.4846  0.6233  0.01423  0.02709  0.03905  -0.01564  0.09119  1.278
4.692e+09  0.7429  -0.1578  0.0001139  -0.02159  -0.01294  -0.06204  1.15  0.5056
4.696e+09  0.1387  -0.7238  -0.01498  0.02884  0.04375  0.007111  0.9672  -0.8381
4.7e+09  -0.5791  -0.5296  -0.1029  0.03746  -0.03734  0.004942  -0.2484  -1.152
4.704e+09  -0.6704  0.2802  -0.02932  -0.06909  -0.0202  -0.01757  -1.23  -0.2587
4.708e+09  -0.03315  0.7263  0.01901  0.0345  -0.005336  0.02485  -0.7893  0.9164
4.712e+09  0.6444  0.3538  0.023  -0.07067  0.02653  0.03536  0.4668  1.01
4.716e+09  0.566  -0.4466  -0.03406  -0.04122  -0.01492  -0.08731  1.152  0.1138
4.72e+09  -0.06168  -0.655  -0.04556  0.0583  -0.0132  -0.01303  0.5862  -0.9461
4.724e+09  -0.7506  -0.1842  -0.02001  -0.006487  0.002603  0.002951  -0.5969  -0.8802
4.728e+09  -0.4554  0.5352  -0.01551  -0.001936  0.03266  0.04957  -1.059  0.04393
4.732e+09  0.2508  0.6805  0.002415  0.04419  0.02245  -0.007927  -0.4993  0.9263
4.736e+09  0.7172  -0.01798  -0.03566  0.01758  -0.01515  -0.01827  0.7084  0.8994
4.74e+09  0.2959  -0.5683  -0.04076  0.06064  -0.0806  -0.03451  0.9876  -0.1064
4.744e+09  -0.3835  -0.5638  0.01176  -0.01293  -0.03895  -0.04216  0.3154  -1.088
4.748e+09  -0.6193  0.1208  0.03189  -0.03465  0.002978  -0.01905  -0.7662  -0.7303
4.752e+09  -0.1773  0.5843  -0.03522  -0.06361  0.01331  -0.02488  -1.002  0.3202
4.756e+09  0.4363  0.4147  -0.03821  -0.05008  -0.02589  0.01348  -0.2027  1.07
4.76e+09  0.5719  -0.127  0.0379  -0.06166  -0.05019  0.00223  0.9705  0.6584
4.764e+09  0.08727  -0.5072  0.06631  0.02726  0.002533  0.02211  1.059  -0.4427
4.768e+09  -0.4363  -0.3386  0.06768  0.0001826  -0.01771  0.01481  -0.008532  -1.155
4.772e+09  -0.5476  0.2645  0.04837  -0.05428  -0.02201  0.01864  -1.034  -0.5483
4.776e+09  -0.04413  0.5228  -0.06237  -0.04069  -0.03123  0.009985  -0.9651  0.71
4.78e+09  0.5041  0.2728  -0.03029  0.01515  0.01942  0.02092  0.2159  1.243
4.784e+09  0.4504  -0.2891  -0.02681  -0.01145  -0.02355  0.01063  1.115  0.2492
4.788e+09  -0.07367  -0.5361  0.05176  -0.0289  0.0203  -0.05237  0.8118  -0.8074
4.792e+09  -0.515  -0.1847  -0.02835  -0.00111  -0.009166  0.03117  -0.3855  -1.102
4.796e+09  -0.3315  0.2751  0.08809  0.01722  -0.02386  0.03924  -1.173  -0.2086
4.8e+09  0.166  0.5167  0.09738  0.01878  0.03893  0.05834  -0.6274  1.026
4.804e+09  0.4121  0.07822  -0.01497  0.03458  0.009568  0.01697  0.5674  1.045
4.808e+09  0.3017  -0.3551  0.007153  -0.09409  -0.04968  -0.04597  1.235  0.01625
4.812e+09  -0.225  -0.4752  -0.06852  -0.01135  -0.03396  -0.001284  0.365  -1.226
4.816e+09  -0.5046  -0.01288  -0.03423  0.03059  -0.003852  0.02606  -0.9222  -0.9244
4.82e+09  -0.2639  0.4388  0.03386  0.04582  -0.02978  0.04269  -1.204  0.4257
4.824e+09  0.2522  0.4441  0.06803  -0.03277  0.02377  -0.01541  -0.1214  1.211
4.828e+09  0.4963  -0.06664  0.01779  -0.0458  -0.002234  0.02246  1.155  0.7521
4.832e+09  0.1441  -0.4686  -0.04693  0.0004436  -0.01015  0.0006424  1.1  -0.68
4.836e+09  -0.3269  -0.4358  -0.03749  0.06491  0.03493  -0.04758  -0.1414  -1.329
4.84e+09  -0.517  0.07215  0.02643  0.01838  0.005575  -0.03322  -1.2  -0.4143
4.844e+09  -0.09332  0.5391  -0.02393  0.07001  0.01584  -0.0199  -0.8968  0.9207
4.848e+09  0.3723  0.3528  -0.002279  -0.01705  0.02076  -0.01697  0.4671  1.142
4.852e+09  0.5325  -0.182  -0.03217  -0.009757  -0.0159  0.005885  1.287  0.1988
4.856e+09  0.02706  -0.49  0.07204  -0.01503  -0.01954  -0.05294  0.6783  -0.996
4.86e+09  -0.4745  -0.3243  -0.06238  -0.07813  -0.05149  0.004055  -0.6509  -1.083
4.864e+09  -0.5491  0.2499  0.04167  0.0765  -0.01557  0.032  -1.124  0.1231
4.868e+09  -0.007683  0.5897  -0.04947  0.04663  -0.008547  -0.004565  -0.4261  1.022
4.872e+09  0.5466  0.2869  0.07045  -0.05726  -0.06829  0.009634  0.7897  0.8021
4.876e+09  0.5264  -0.394  -0.06905  -0.04282  0.01867  -0.01742  1.051  -0.3686
4.88e+09  -0.08086  -0.6603  0.04338  0.001223  0.02701  -0.07299  0.2111  -1.085
4.884e+09  -0.656  -0.2418  0.01184  0.1077  -0.01748  0.02223  -0.9354  -0.6758
4.888e+09  -0.4978  0.4897  -0.06188  -0.06862  -0.01317  0.001909  -0.8927  0.4894
4.892e+09  0.2062  0.6655  0.04318  -0.05391  0.005418  0.01738  -0.05081  1.067
4.896e+09  0.7  0.07429  0.001764  -0.0373  -0.002076  0.02732  0.8812  0.4713
4.9e+09  0.4256  -0.6235  0.01702  -0.02154  0.01435  -0.007138  0.7859  -0.516
4.904e+09  -0.3592  -0.6725  -0.02525  -0.03034  0.05177  -0.009895  -0.09211  -0.967
4.908e+09  -0.7163  0.01004  0.009814  -0.02638  0.04038  0.001199  -0.8506  -0.3265
4.912e+09  -0.2998  0.6619  0.02634  -0.01728  -0.02233  -0.02568  -0.6721  0.5782
4.916e+09  0.4811  0.6332  0.06785  0.0574  0.0341  -0.02054  0.2779  0.8616
4.92e+09  0.763  -0.1826  0.002118  -0.0557  -0.006949  -0.03061  0.8665  0.2327
4.924e+09  0.1591  -0.7678  -0.04787  -0.06995  0.02976  -0.008505  0.5319  -0.6358
4.928e+09  -0.5938  -0.502  0.02866  -0.005332  -0.005445  0.006367  -0.2127  -0.7623
4.932e+09  -0.6731  0.3537  -0.03462  0.0006905  -0.03289  -0.03732  -0.8267  -0.08893
4.936e+09  -0.05318  0.7641  0.1027  0.01875  -0.01936  -0.02659  -0.4391  0.75
4.94e+09  0.6413  0.4275  -0.009669  0.04432  -0.001123  0.06231  0.4423  0.7047
4.944e+09  0.6483  -0.4326  0.01001  0.003127  -0.0326  -0.03118  0.8807  0.0294
4.948e+09  -0.09499  -0.7289  0.0009898  0.003389  0.04445  -0.005145  0.3655  -0.7479
4.952e+09  -0.7042  -0.2236  -0.0262  0.02102  0.03335  -0.0344  -0.4986  -0.6468
4.956e+09  -0.5524  0.519  0.02875  -0.02761  0.00879  0.03687  -0.8063  0.1131
4.96e+09  0.1969  0.721  -0.02267  -0.0007813  0.0595  -0.02523  -0.3075  0.8031
4.964e+09  0.7001  0.09627  -0.002474  0.03153  0.01193  -0.02225  0.5382  0.7465
4.968e+09  0.4044  -0.5519  0.0462  -0.02647  -0.1016  -0.01522  0.8336  -0.233
4.972e+09  -0.3333  -0.6219  0.04456  -0.02389  0.028  0.03268  0.2036  -0.8022
4.976e+09  -0.6248  -0.02314  -0.01518  0.002095  0.006406  0.0055  -0.6147  -0.5454
4.98e+09  -0.3019  0.5805  0.005036  0.0004721  0.01062  0.009321  -0.764  0.2773
4.984e+09  0.3166  0.503  0.009253  -0.01554  0.01722  -0.03782  -0.1194  0.8871
