# Hz S RI R 50
4e+09  -2.415  1.599  1.119  -3.908  0.2582  -2.221  -0.6589  3.316
4.004e+09  -0.1957  0.7632  0.03177  0.04426  -0.1142  0.01603  -1.759  1.838
4.008e+09  0.5425  0.466  0.03931  0.1019  -0.05377  -0.01896  0.903  2.322
4.012e+09  0.8622  -0.2655  -0.03495  -0.04429  -0.08145  0.00374  2.348  0.2097
4.016e+09  0.06758  -0.8193  -0.05161  0.04131  0.02851  0.02454  1.187  -1.94
4.02e+09  -0.6754  -0.3964  0.0228  0.06372  -0.02606  -0.06653  -1.112  -1.996
4.024e+09  -0.7178  0.4135  0.05571  0.04976  -0.04986  -0.006285  -2.274  0.2055
4.028e+09  0.06037  0.858  -0.03467  -0.05867  -0.03486  0.005427  -0.8141  2.035
4.032e+09  0.8194  0.4095  0.1153  -0.05718  0.04981  -0.04226  1.38  1.76
4.036e+09  0.6587  -0.6054  0.0569  0.02303  -0.01538  0.03085  2.012  -0.5838
4.04e+09  -0.2101  -0.9022  -0.07009  0.03779  -0.01466  -0.05386  0.5688  -2.125
4.044e+09  -0.911  -0.2036  -0.01742  -0.01848  0.02904  -0.09554  -1.573  -1.397
4.048e+09  -0.516  0.6859  0.02751  -0.06155  -0.01743  0.006842  -1.968  0.8112
4.052e+09  0.3775  0.8086  0.06057  -0.02426  -0.0004422  0.0403  -0.28  2.103
4.056e+09  0.9145  0.07208  0.04348  -0.02831  0.02181  -0.04516  1.824  1.238
4.06e+09  0.4573  -0.8041  0.005629  -0.05095  0.02713  -0.007268  1.774  -1.064
4.064e+09  -0.4851  -0.7301  0.003044  0.03499  -0.03752  -0.01258  -0.04624  -2.071
4.068e+09  -0.8714  0.1519  -0.02349  0.05638  -0.03055  -0.01091  -1.835  -0.9287
4.072e+09  -0.2697  0.844  -0.03517  -0.02219  -0.03081  -0.02483  -1.611  1.299
4.076e+09  0.6477  0.6626  0.02134  0.08849  -0.02672  0.05937  0.3945  1.94
4.08e+09  0.9669  -0.3296  -0.0409  -0.01134  -0.001257  0.003648  1.831  0.4877
4.084e+09  0.1389  -0.9747  0.01374  0.08433  0.007165  0.02056  1.336  -1.32
4.088e+09  -0.8033  -0.5047  -0.03258  0.04602  0.06514  -0.008218  -0.6575  -1.887
4.092e+09  -0.8668  0.509  0.1054  -0.04948  0.01202  0.05045  -1.888  -0.408
4.096e+09  0.1471  0.9091  0.001361  0.008868  0.02019  0.03688  -1.199  1.405
4.1e+09  0.9786  0.2702  -0.09879  0.04545  -0.01623  0.06747  0.8224  1.765
4.104e+09  0.6349  -0.7592  0.005702  -0.007598  -0.01667  0.06555  1.886  0.1417
4.108e+09  -0.4088  -0.9093  -0.008732  0.0434  -0.008093  0.03729  0.988  -1.769
4.112e+09  -0.9461  0.002704  -0.03849  0.03546  -0.05785  -0.03017  -1.068  -1.631
4.116e+09  -0.4121  0.7763  -0.03165  -0.02144  0.01008  0.002716  -1.905  0.1215
4.12e+09  0.6107  0.7548  0.0002148  -0.01236  -0.01676  0.02721  -0.6868  1.836
4.124e+09  0.9023  -0.1916  -0.03047  0.09905  -0.00842  0.01343  1.414  1.575
4.128e+09  0.255  -0.9209  0.02133  0.04915  -0.04345  -0.02264  1.998  -0.5934
4.132e+09  -0.7313  -0.5924  0.02938  -0.002418  -0.05804  0.009694  0.4212  -1.984
4.136e+09  -0.8775  0.372  -0.05997  0.03649  -0.01336  -0.01465  -1.563  -1.205
4.14e+09  -0.07144  0.8816  0.03711  0.01624  -0.005406  -0.01095  -1.948  0.8185
4.144e+09  0.795  0.43  -0.02833  0.03316  -0.001929  -0.007943  -0.162  2.058
4.148e+09  0.7489  -0.4809  0.0313  0.04315  0.03518  0.1106  1.822  1.045
4.152e+09  -0.135  -0.805  -0.1046  -0.03739  -0.08466  0.09598  1.691  -1.046
4.156e+09  -0.8958  -0.1512  0.003122  -0.02132  0.01025  0.1252  -0.2639  -2.126
4.16e+09  -0.522  0.6231  0.06813  -0.104  -0.0449  0.0301  -1.992  -0.5391
4.164e+09  0.3392  0.7853  0.01482  -0.1134  0.001633  0.04601  -1.596  1.598
4.168e+09  0.8362  0.03907  0.0551  0.02068  0.003815  0.03376  0.6935  1.956
4.172e+09  0.3552  -0.7307  -0.0385  -0.02578  -0.1141  -0.056  2.119  0.1489
4.176e+09  -0.4783  -0.6902  -0.03841  0.1114  -0.03934  -0.04094  1.137  -1.841
4.18e+09  -0.7676  0.09969  -0.0285  -0.1144  0.04041  -0.04326  -1.32  -1.792
4.184e+09  -0.2365  0.719  -0.002933  0.09573  0.03066  0.01607  -2.276  0.4283
4.188e+09  0.5713  0.6034  -0.01017  0.007639  -0.01997  0.02901  -0.5431  2.115
4.192e+09  0.776  -0.2369  -0.09479  0.01293  -0.04728  -0.01229  1.564  1.411
4.196e+09  0.1457  -0.8048  0.02767  0.03379  -0.03577  0.01268  1.992  -0.919
4.2e+09  -0.6282  -0.5767  -0.1118  -0.2233  -0.01183  0.07633  0.05396  -2.294
4.204e+09  -0.7626  0.3932  0.02266  -0.07406  0.02559  -0.02111  -1.809  -0.9684
4.208e+09  -0.09019  0.8937  -0.004955  -0.008269  -0.006985  0.03467  -1.687  1.189
4.212e+09  0.7784  0.3509  0.022  -0.01817  -0.01008  -0.05937  0.3941  2.072
4.216e+09  0.6768  -0.4303  0.1542  0.00747  0.03789  -0.05687  1.969  0.455
4.22e+09  -0.09505  -0.8777  -0.05892  -0.003308  -0.0531  -0.02205  1.171  -1.589
4.224e+09  -0.7953  -0.2528  -0.03547  -0.003113  0.06667  -0.005135  -0.9125  -1.737
4.228e+09  -0.6294  0.6199  -0.02537  0.02446  -0.004369  -0.01014  -1.862  -0.1081
4.232e+09  0.2429  0.8478  -0.05609  -0.06104  -0.04438  -0.1073  -0.7654  1.65
4.236e+09  0.8947  0.2005  0.1008  0.05508  0.000429  0.002716  1.079  1.441
4.24e+09  0.6325  -0.6087  -0.09486  0.06434  0.003681  0.02135  1.72  -0.3543
4.244e+09  -0.3623  -0.7925  0.04167  0.0912  -0.001059  -0.02802  0.3975  -1.82
4.248e+09  -0.8517  0.05946  -0.0409  0.1341  0.01352  0.02149  -1.422  -1.216
4.252e+09  -0.3927  0.8119  -0.0188  -0.01033  -0.08994  -0.02861  -1.663  0.7436
4.256e+09  0.5447  0.8017  0.03175  -0.002298  -0.02994  -0.01133  -0.1378  1.721
4.26e+09  0.8467  -0.1655  0.03008  -0.004924  0.00471  -0.004331  1.434  0.8721
4.264e+09  0.388  -0.8576  -0.03809  -0.07154  0.004928  0.003764  1.423  -0.9726
4.268e+09  -0.7037  -0.6971  0.05553  0.001462  -0.006484  0.06261  -0.1329  -1.644
4.272e+09  -0.8892  0.2332  0.01936  -0.01716  -0.02581  0.02969  -1.584  -0.5712
4.276e+09  -0.09262  0.9409  0.03108  0.03653  0.05491  -0.01582  -1.224  1.061
4.28e+09  0.8704  0.4753  -0.05634  -0.01989  -0.1003  0.007094  0.4545  1.606
4.284e+09  0.9211  -0.5156  0.02266  0.08949  -0.04827  0.01094  1.575  0.3926
4.288e+09  -0.04585  -0.961  0.02367  0.03112  0.01737  -0.02895  1.023  -1.355
4.292e+09  -0.9445  -0.3308  -0.05846  0.03612  -0.02421  0.02448  -0.6778  -1.436
4.296e+09  -0.7104  0.7029  0.01066  -0.1037  0.0446  -0.02573  -1.638  -0.1053
4.3e+09  0.3582  0.9536  -0.09783  0.06027  -0.005708  -0.003736  -0.7992  1.273
4.304e+09  0.9888  0.1933  -0.04268  -0.07313  0.04829  -0.04206  0.8345  1.438
4.308e+09  0.5258  -0.8514  0.0006742  0.03031  -0.05215  -0.07838  1.619  -0.1891
4.312e+09  -0.439  -0.7982  -0.02494  -0.002592  0.01755  0.0118  0.6389  -1.497
4.316e+09  -1.006  -0.0099  0.05178  0.02864  0.00951  -0.04639  -1.015  -1.162
4.32e+09  -0.3915  0.9113  0.03261  0.05819  -0.001013  -0.05164  -1.673  0.3886
4.324e+09  0.5656  0.8079  -0.05987  0.02123  0.00297  -0.009825  -0.3781  1.62
4.328e+09  1.037  -0.2207  0.01616  0.085  -0.00453  -0.05422  1.22  1.095
4.332e+09  0.2117  -1.059  0.02528  -0.08035  -0.02356  -0.02439  1.537  -0.6661
4.336e+09  -0.8209  -0.6644  0.01965  0.01924  -0.05878  8.818e-05  0.2174  -1.67
4.34e+09  -0.9936  0.4488  -0.09182  -0.009748  0.007208  -0.004642  -1.488  -1.029
4.344e+09  -0.01324  0.9989  0.1211  -0.01773  -0.04028  0.01542  -1.489  0.9059
4.348e+09  0.8635  0.4349  -0.06036  -0.02227  0.01345  -0.08267  0.07777  1.752
4.352e+09  0.8564  -0.5499  -0.03311  0.03588  -0.02406  -0.04485  1.621  0.7719
4.356e+09  -0.1643  -0.9271  0.01634  0.04893  -0.008803  -0.005459  1.387  -1.172
4.36e+09  -0.8488  -0.2211  0.08768  0.01346  -0.007248  -0.04709  -0.4509  -1.747
4.364e+09  -0.7013  0.7022  0.07647  -0.06118  -0.02648  0.0196  -1.773  -0.3484
4.368e+09  0.3089  0.8724  0.01544  0.1025  0.07986  0.04247  -1.035  1.373
4.372e+09  0.9149  0.06956  -0.05442  0.01112  0.01415  -0.01303  0.741  1.677
4.376e+09  0.5442  -0.7745  -0.005972  -0.05363  0.01933  0.06482  1.837  0.1009
4.38e+09  -0.4922  -0.7887  0.0289  0.007949  -0.04915  0.0244  0.9755  -1.622
4.384e+09  -0.8659  0.002497  -0.09026  -0.01912  -0.02339  -0.02776  -0.9276  -1.434
4.388e+09  -0.417  0.7626  -0.02575  -0.005672  0.02903  -0.02997  -1.866  0.2303
4.392e+09  0.5466  0.7211  0.02452  0.06926  -0.081  -0.007731  -0.6532  1.82
4.396e+09  0.8124  -0.2096  -0.01107  0.0169  -0.03848  0.01457  1.292  1.259
4.4e+09  0.2895  -0.8186  0.001975  0.1286  -0.03524  0.1199  1.621  -0.514
4.404e+09  -0.5982  -0.5627  -0.01216  0.02464  0.03908  0.02073  0.2715  -1.681
4.408e+09  -0.752  0.2871  0.003682  -0.01211  0.004394  0.04551  -1.526  -1.002
4.412e+09  -0.08254  0.8785  0.04333  -0.02309  -0.02795  0.007313  -1.559  0.9776
4.416e+09  0.6862  0.3909  -0.03074  -0.04128  -0.04997  -0.02289  0.1622  1.73
4.42e+09  0.648  -0.4585  0.05093  -0.08009  0.04425  -0.0469  1.707  0.6699
4.424e+09  -0.0661  -0.8511  -0.06236  -0.03797  -0.02312  0.0355  1.29  -1.262
4.428e+09  -0.7491  -0.3145  -0.09543  0.09677  0.01686  0.06281  -0.5209  -1.838
4.432e+09  -0.6343  0.5509  -0.04768  -0.03904  0.0301  -0.05361  -1.659  -0.3827
4.436e+09  0.2049  0.7569  -0.006337  -0.01972  -0.02797  -0.03691  -1.048  1.453
4.44e+09  0.7811  0.1945  -0.0151  0.04627  -0.06642  -0.01547  0.7657  1.546
4.444e+09  0.5474  -0.6346  0.04331  0.07388  -0.04842  0.05011  1.792  -0.07172
4.448e+09  -0.3533  -0.7499  0.04613  -0.09425  0.03236  0.04407  0.6657  -1.537
4.452e+09  -0.854  -0.02259  0.0395  -0.01791  -0.008072  -0.04013  -1.014  -1.254
4.456e+09  -0.429  0.7043  0.05681  0.1149  -0.03282  0.02502  -1.61  0.4214
4.46e+09  0.5158  0.6774  -0.004179  -0.006233  0.0622  0.006988  -0.3367  1.57
4.464e+09  0.7815  -0.09533  -0.1399  0.06085  -0.01902  0.04597  1.216  1.012
4.468e+09  0.253  -0.7956  0.06208  0.02517  0.03523  -0.01858  1.453  -0.703
4.472e+09  -0.6637  -0.5669  0.01441  0.02676  -0.01329  0.02554  -0.02876  -1.631
4.476e+09  -0.7395  0.3631  -0.01675  -0.0941  0.02726  0.04295  -1.352  -0.6302
4.48e+09  -0.09422  0.8082  -0.09024  0.000279  0.02905  0.02006  -1.198  0.9496
4.484e+09  0.6528  0.4865  0.03961  0.0675  -0.01917  -0.0258  0.2191  1.473
4.488e+09  0.7697  -0.4602  0.005462  -0.0426  -0.01242  0.001637  1.401  0.4163
4.492e+09  -0.1052  -0.8943  0.02732  0.05624  0.06703  0.0373  0.9919  -1.049
4.496e+09  -0.8226  -0.2453  0.0119  -0.03406  -0.001248  -0.02967  -0.5321  -1.358
4.5e+09  -0.646  0.6265  0.1008  0.2062  -0.04111  0.04127  -1.48  -0.1197
4.504e+09  0.2401  0.7812  0.06698  -0.09812  -0.008572  -0.005951  -0.835  1.124
4.508e+09  0.7857  0.1395  -0.08346  -0.05917  0.01245  -0.0001193  0.7061  1.176
4.512e+09  0.4396  -0.5857  0.001402  0.02753  0.01639  0.02192  1.356  -0.1058
4.516e+09  -0.3394  -0.673  0.1082  0.05164  0.01293  0.02627  0.6059  -1.305
4.52e+09  -0.7345  0.04189  -0.0354  -0.0497  -0.04937  0.03702  -0.8611  -0.971
4.524e+09  -0.2613  0.7452  -0.02735  0.03612  0.07224  -0.04072  -1.38  0.2422
4.528e+09  0.4662  0.5538  -0.02194  -0.02784  -0.02636  -0.01219  -0.3876  1.356
4.532e+09  0.6977  -0.2069  -0.07021  0.08544  -0.04867  -0.05387  1.01  0.8542
4.536e+09  0.1664  -0.7198  0.01053  0.08376  -0.004665  -0.05542  1.243  -0.4585
4.54e+09  -0.582  -0.5202  0.09439  -0.007083  0.01678  -0.03668  0.1339  -1.201
4.544e+09  -0.6952  0.2607  0.05317  0.005777  -0.03137  0.03885  -1.077  -0.7523
4.548e+09  -0.05729  0.748  -0.001905  0.03509  0.006371  0.005582  -1.083  0.6063
4.552e+09  0.6508  0.3991  -0.00172  0.02472  -0.009597  0.01064  0.1347  1.295
4.556e+09  0.6205  -0.3678  0.06495  -0.0295  0.0616  0.02342  1.216  0.4572
4.56e+09  -0.06675  -0.7982  0.02012  0.04576  0.0364  -0.03236  0.8864  -0.8776
4.564e+09  -0.7073  -0.2728  0.01193  0.005758  0.01515  -0.001467  -0.4139  -1.331
4.568e+09  -0.6023  0.4351  0.0392  0.004302  -0.05307  0.05527  -1.342  -0.3182
4.572e+09  0.1056  0.7002  -0.08153  -0.09478  0.03419  -0.01638  -0.8997  1.027
4.576e+09  0.6988  0.2354  -0.05433  0.01775  0.01845  -0.025  0.4906  1.293
4.58e+09  0.5439  -0.5168  0.01297  0.07878  0.0003982  0.02726  1.297  0.1272
4.584e+09  -0.2335  -0.6648  0.1033  0.04589  -0.02499  0.002727  0.6852  -1.172
4.588e+09  -0.7201  -0.09191  0.05003  0.05784  0.009342  0.06661  -0.7621  -1.125
4.592e+09  -0.4434  0.6174  -0.01378  -0.005228  0.07412  0.03941  -1.234  0.2577
4.596e+09  0.3006  0.6821  -0.0008706  0.03306  0.01869  -0.02719  -0.3695  1.311
4.6e+09  0.6915  0.004278  0.07746  -0.1133  0.0282  -0.001765  1.084  0.8736
4.604e+09  0.2981  -0.6023  -0.05125  -0.09965  -0.004414  0.04284  1.429  -0.5922
4.608e+09  -0.3022  -0.6427  -0.09738  -0.0962  0.0006358  0.04596  0.178  -1.458
4.612e+09  -0.7167  0.1294  -0.06845  -0.01729  -0.02864  0.0209  -1.256  -0.6904
4.616e+09  -0.3333  0.723  -0.1027  -0.03838  -0.02944  0.0271  -1.345  0.7719
4.62e+09  0.4418  0.5366  -0.03367  0.01694  0.0171  0.03848  0.2215  1.578
4.624e+09  0.7626  -0.1649  0.01933  0.03467  -0.02504  -0.004053  1.369  0.5524
4.628e+09  0.2208  -0.7212  0.04773  0.09276  0.01868  0.04124  1.092  -0.9025
4.632e+09  -0.5862  -0.5045  0.1049  -0.004922  0.03546  -0.009904  -0.3102  -1.407
4.636e+09  -0.6922  0.298  -0.03224  -0.05276  -0.01256  -0.01301  -1.298  -0.2128
4.64e+09  -0.05542  0.7858  -0.04944  -0.07206  0.03223  0.02697  -0.8111  1.07
4.644e+09  0.5964  0.4055  -0.0651  -0.09828  0.05043  0.05697  0.6756  1.149
4.648e+09  0.7285  -0.4122  -0.04562  0.07047  -0.02423  0.02523  1.345  -0.08454
4.652e+09  0.001244  -0.7742  -0.02246  -0.03701  -0.008232  0.008791  0.5462  -1.167
4.656e+09  -0.7903  -0.3831  -0.03748  -0.01003  0.01864  -0.01709  -0.9006  -1.028
4.66e+09  -0.6519  0.4842  0.03028  0.02718  0.01624  0.03719  -1.246  0.3205
4.664e+09  0.1785  0.845  0.06683  0.02878  -0.03619  -0.05799  -0.3223  1.351
4.668e+09  0.754  0.2069  -0.04659  0.03354  -0.02886  0.007647  0.9874  0.8135
4.672e+09  0.5881  -0.535  0.04797  -0.02441  0.01826  -0.01815  1.161  -0.459
4.676e+09  -0.229  -0.757  -0.001229  0.02676  0.004368  -0.01833  0.07828  -1.188
4.68e+09  -0.8126  -0.08115  0.06095  0.01433  -0.0576  0.01709  -1.064  -0.6449
4.684e+09  -0.3977  0.6983  -0.01262  0.05261  0.01433  -0.0009631  -1.082  0.5974
4.688e+09  0.4011  0.7129  0.003078  -0.0151  -0.01173  0.03115  0.06628  1.212
4.692e+09  0.8864  -0.08447  -0.007367  -0.0319  0.01684  -0.07597  1.039  0.4259
4.696e+09  0.3453  -0.8069  0.01112  -0.02301  -0.003245  0.01247  0.8953  -0.7906
4.7e+09  -0.5508  -0.608  0.08262  -0.0695  -0.03377  0.01182  -0.2999  -1.113
4.704e+09  -0.798  0.2911  -0.04848  -0.009052  -0.0299  -0.03125  -1.216  -0.3202
4.708e+09  -0.09754  0.7599  -0.03299  0.02681  0.0314  -0.005955  -0.714  0.8701
4.712e+09  0.6627  0.4389  0.0406  -0.0121  -0.00581  -0.03935  0.4338  1.141
4.716e+09  0.7415  -0.4118  0.001025  0.04503  0.02996  0.02234  1.133  0.06513
4.72e+09  -0.06229  -0.7778  0.01964  -0.01934  0.07519  0.05033  0.6772  -0.8946
4.724e+09  -0.7336  -0.2703  -0.01686  -0.02424  0.005363  -0.002947  -0.537  -0.9411
4.728e+09  -0.5464  0.481  -0.008438  -0.01114  -0.03273  -0.03313  -1.172  0.03812
4.732e+09  0.1779  0.7243  -0.06202  -0.01946  0.03817  -0.01968  -0.3505  0.9677
4.736e+09  0.7225  0.1268  -0.03501  -0.03952  -0.02029  -0.0278  0.719  0.7842
4.74e+09  0.4351  -0.539  -0.06563  0.01858  -0.01887  0.01936  1.104  -0.2093
4.744e+09  -0.35  -0.6519  0.07107  0.0864  -0.01597  0.01527  0.3382  -0.9971
4.748e+09  -0.6578  0.07672  -0.006349  -0.0142  -0.01735  -0.03925  -0.7588  -0.7542
4.752e+09  -0.3091  0.6301  0.02408  -0.076  0.01184  0.006374  -0.9878  0.3747
4.756e+09  0.3543  0.5258  0.01765  0.04192  0.01292  0.004748  -0.1801  1.073
4.76e+09  0.5876  -0.04089  -0.03179  0.04669  -0.05518  -0.003162  0.9503  0.6027
4.764e+09  0.1474  -0.5804  0.01425  -0.0109  -0.006836  0.01334  0.8961  -0.5453
4.768e+09  -0.4926  -0.4185  0.03704  -0.03236  -0.03255  -0.01136  -0.1238  -1.232
4.772e+09  -0.5781  0.2346  -0.04692  -0.08391  0.05806  -0.04466  -0.9748  -0.4918
4.776e+09  -0.06643  0.6036  -0.06754  -0.05458  0.04264  -0.008341  -0.9543  0.6899
4.78e+09  0.4929  0.2918  -0.1057  0.02097  0.02518  -0.04393  0.1567  1.158
4.784e+09  0.4399  -0.3152  -0.008396  0.02944  -0.03238  0.004574  1.148  0.3635
4.788e+09  -0.07687  -0.5684  -0.01665  0.04035  8.67e-05  -0.02586  0.7976  -0.8437
4.792e+09  -0.4825  -0.1671  0.01823  0.01785  -0.02017  -0.002643  -0.4149  -1.107
4.796e+09  -0.4071  0.3695  0.01168  0.003993  0.0452  0.04971  -1.145  -0.1095
4.8e+09  0.1137  0.6014  -0.01658  -0.06967  0.07011  0.04728  -0.6621  0.9853
4.804e+09  0.4947  0.1165  -0.07656  0.02627  -0.05603  0.04568  0.6941  1.116
4.808e+09  0.329  -0.3704  -0.01637  0.05404  -0.00774  0.06134  1.249  -0.1428
4.812e+09  -0.189  -0.4416  -0.001605  -0.0285  -0.01647  0.03679  0.4508  -1.238
4.816e+09  -0.4812  -0.05104  0.07338  -0.01258  0.01354  0.01904  -0.8529  -0.9599
4.82e+09  -0.305  0.4659  0.02942  0.03144  0.021  -0.03179  -1.236  0.3458
4.824e+09  0.2368  0.4128  0.002971  -0.04309  0.0169  -0.07494  -0.1071  1.22
4.828e+09  0.4741  -0.03393  -0.002044  -0.06757  0.002241  0.04924  1.029  0.727
4.832e+09  0.1961  -0.4438  -0.05274  -0.0273  -0.007463  0.05711  1.008  -0.713
4.836e+09  -0.2916  -0.4722  -0.05331  0.02319  -0.01425  0.006505  -0.1757  -1.31
4.84e+09  -0.5558  0.07859  -0.02773  0.05009  -0.0003416  0.01147  -1.286  -0.3612
4.844e+09  -0.1931  0.5246  0.01712  0.05636  -0.005993  0.0475  -0.8841  0.8785
4.848e+09  0.3811  0.4421  0.0494  -0.003443  -0.006621  -0.02173  0.4683  1.191
4.852e+09  0.5143  -0.2056  -0.01048  0.003725  -0.02273  0.02895  1.155  0.1442
4.856e+09  0.09435  -0.5324  0.02253  0.04097  0.01323  0.04209  0.6932  -1.041
4.86e+09  -0.4998  -0.3825  0.009565  0.09749  -0.0662  0.03117  -0.6643  -1.051
4.864e+09  -0.5658  0.2688  0.05874  -0.02814  -0.02781  0.09533  -1.198  0.08103
4.868e+09  0.02232  0.6646  -0.03934  0.04624  0.01549  -0.04528  -0.3938  1.069
4.872e+09  0.5496  0.368  0.001825  -0.009966  0.03814  0.08294  0.7494  0.7694
4.876e+09  0.557  -0.336  -0.01154  -0.01306  0.06487  0.01623  1.072  -0.3276
4.88e+09  0.004951  -0.6833  -0.1025  0.04765  -0.01892  0.02218  0.1419  -0.9954
4.884e+09  -0.6614  -0.2437  0.03077  0.01941  -0.01571  -0.01556  -0.9206  -0.6527
4.888e+09  -0.5614  0.4882  0.0961  0.003904  -0.03974  -0.04305  -0.8878  0.558
4.892e+09  0.155  0.6811  -0.02984  0.03011  0.04822  -0.02893  0.01978  0.9883
4.896e+09  0.6961  0.1524  0.04218  0.07879  0.002741  0.0349  0.8449  0.5021
4.9e+09  0.4628  -0.5826  -0.003609  0.04011  0.03383  0.09938  0.7713  -0.4774
4.904e+09  -0.3788  -0.7215  -0.002925  0.01163  0.004027  -0.007642  -0.1343  -0.9487
4.908e+09  -0.7493  -0.005742  0.06155  0.01603  0.01876  0.01008  -0.8635  -0.3527
4.912e+09  -0.3506  0.6939  -0.01824  -0.05317  -0.02553  0.0005963  -0.6164  0.67
4.916e+09  0.4817  0.6388  -0.0163  -0.00928  -0.0075  0.0178  0.2302  0.8114
4.92e+09  0.8092  -0.1511  0.01435  -0.05148  0.01155  0.001483  0.891  0.182
4.924e+09  0.2403  -0.7993  0.01307  -0.01437  0.001034  -0.01461  0.5954  -0.6664
4.928e+09  -0.5604  -0.5594  -0.02075  0.06336  -0.03097  0.00146  -0.3672  -0.8176
4.932e+09  -0.7638  0.308  0.05655  0.06321  -0.001923  0.0005082  -0.808  -0.1138
4.936e+09  -0.06255  0.7836  0.0546  -0.008805  0.004383  -0.02297  -0.486  0.7491
4.94e+09  0.7198  0.4119  -0.03512  -0.02526  -0.005474  -0.01771  0.4329  0.7388
4.944e+09  0.6174  -0.4328  0.06065  0.02008  -0.0008842  -0.001936  0.8464  -0.000644
4.948e+09  -0.08652  -0.7469  0.03153  -0.00158  -0.007622  -0.007761  0.3165  -0.6934
4.952e+09  -0.6891  -0.2626  -0.01932  -0.05626  -0.03512  0.004511  -0.5133  -0.6537
4.956e+09  -0.5651  0.4787  -0.008311  0.01786  0.006837  0.00415  -0.7762  0.1822
4.96e+09  0.1548  0.7247  0.06926  0.009457  -0.02722  -0.01066  -0.2603  0.8371
4.964e+09  0.6891  0.1459  -0.07652  0.0007192  0.02817  0.009668  0.6204  0.5425
4.968e+09  0.4788  -0.5026  0.07252  0.04233  0.07088  -0.036  0.8443  -0.2439
4.972e+09  -0.3086  -0.5986  -0.03294  0.03071  0.02939  0.01311  0.1595  -0.882
4.976e+09  -0.6712  -0.03204  0.03964  0.03192  0.01458  -0.01818  -0.6191  -0.5028
4.98e+09  -0.3063  0.5744  -0.02046  -0.02735  -0.004549  -0.04521  -0.7741  0.2953
4.984e+09  0.3534  0.5285  -0.01528  0.003329  0.01053  -0.03156  -0.08413  0.8455
