# Hz S RI R 50
4e+09  0.172  2.865  -4.238  2.531  0.5012  1.859  -4.043  4.519
4.004e+09  0.8175  0.8221  -0.04368  0.08731  0.01658  0.01019  1.635  0.763
4.008e+09  1.098  -0.4265  -0.004793  0.01989  0.001122  0.02836  1.44  -1.29
4.012e+09  0.1888  -1.137  -0.003832  0.001796  -0.01592  0.01507  -0.4314  -1.753
4.016e+09  -0.9849  -0.6609  -0.006825  0.06267  0.04758  0.0009901  -1.707  -0.4551
4.02e+09  -1.111  0.6126  -0.1172  -0.1103  -0.009543  0.01877  -1.196  1.401
4.024e+09  0.03102  1.269  -0.02175  -0.002057  -0.06862  0.02968  0.7257  1.549
4.028e+09  1.168  0.4501  -0.04377  -0.01778  0.01302  0.03029  1.749  0.1634
4.032e+09  0.9565  -0.8134  0.1033  -0.06414  -0.01399  0.05672  0.9028  -1.483
4.036e+09  -0.3218  -1.21  -0.05879  -0.0127  0.004593  0.0455  -0.9367  -1.529
4.04e+09  -1.336  -0.2398  -0.04866  0.04358  0.009288  0.02451  -1.734  0.07046
4.044e+09  -0.7602  0.9652  -0.0501  -0.01742  0.05315  0.00396  -0.587  1.568
4.048e+09  0.6416  1.1  -0.02494  -0.003006  0.0298  -0.07215  1.213  1.188
4.052e+09  1.243  -0.05983  0.0335  0.02953  0.009133  -0.01461  1.735  -0.5108
4.056e+09  0.4105  -1.138  -0.04252  -0.01219  -0.03313  -0.05269  0.3948  -1.756
4.06e+09  -0.9019  -0.9056  -0.03538  -0.03948  0.04353  0.04343  -1.347  -1.012
4.064e+09  -1.209  0.3802  0.02393  0.04834  -0.08198  -0.02842  -1.665  0.8686
4.068e+09  -0.1671  1.243  -0.02288  -0.03578  0.07751  0.00412  0.0958  1.919
4.072e+09  0.9826  0.6878  -0.008535  0.008919  0.04387  -0.001503  1.614  0.7305
4.076e+09  1.094  -0.5847  -0.03903  0.00863  -0.05734  -0.0111  1.263  -1.178
4.08e+09  -0.07155  -1.276  0.02774  -0.02685  -0.0236  0.02188  -0.5144  -1.782
4.084e+09  -1.144  -0.4285  0.006075  -0.1311  -0.01877  0.01986  -1.637  -0.2992
4.088e+09  -0.9094  0.7681  -0.02506  0.0306  -0.07045  -0.0744  -0.9065  1.406
4.092e+09  0.3794  1.2  -0.01575  -0.07915  -0.05931  -0.01791  1.03  1.486
4.096e+09  1.16  0.1248  0.0236  0.09062  -0.04947  -0.01623  1.778  -0.3043
4.1e+09  0.5759  -0.974  -0.1108  0.00838  -0.009509  -0.05663  0.6289  -1.706
4.104e+09  -0.6372  -0.9115  -0.008399  0.04869  3.093e-06  0.003966  -1.278  -1.209
4.108e+09  -1.056  0.1701  -0.004791  -0.002468  0.01368  -0.0129  -1.685  0.7015
4.112e+09  -0.3537  1.047  0.07497  -0.06793  0.01762  -0.004549  -0.1046  1.804
4.116e+09  0.761  0.7509  -0.1249  -0.01607  -0.04784  -0.02503  1.625  0.6321
4.12e+09  1.049  -0.376  0.03177  -0.00929  0.0307  0.03011  1.373  -1.043
4.124e+09  0.1633  -1.047  0.005044  -0.04059  0.06398  0.01008  -0.3974  -1.778
4.128e+09  -0.7737  -0.598  0.02  0.01576  -0.07449  -0.02804  -1.55  -0.3466
4.132e+09  -0.8399  0.4834  0.04449  -0.05521  0.03553  0.007554  -1.004  1.396
4.136e+09  0.07454  0.9948  0.01094  0.0753  0.09633  -0.02789  0.7053  1.498
4.14e+09  0.9266  0.4248  -0.05661  0.001578  -0.008084  -0.015  1.614  -0.05752
4.144e+09  0.7838  -0.544  -0.08937  -0.05077  -0.04418  -0.009388  0.6748  -1.513
4.148e+09  -0.2827  -0.957  0.038  0.004969  0.01824  -0.01161  -1.047  -1.362
4.152e+09  -0.9478  -0.2527  0.06506  -0.02451  -0.01607  -0.0699  -1.635  0.4268
4.156e+09  -0.641  0.7425  0.01582  0.01765  -0.01115  0.06859  -0.3064  1.622
4.16e+09  0.3597  0.9118  0.003733  -0.02248  0.04478  -0.0297  1.214  0.982
4.164e+09  0.9433  0.04421  -0.07815  -0.05669  -0.01181  0.01037  1.432  -0.6805
4.168e+09  0.4482  -0.7831  0.05871  -0.01326  0.07085  -0.1056  0.0536  -1.598
4.172e+09  -0.4407  -0.8159  -0.01998  -0.02816  0.02237  0.004136  -1.46  -0.7171
4.176e+09  -0.9164  0.07939  -0.05547  0.0462  0.0007124  0.06045  -1.245  0.8333
4.18e+09  -0.4211  0.8409  -0.01263  0.01516  -0.0477  -0.001059  0.2998  1.457
4.184e+09  0.7023  0.7339  -0.02964  0.0106  0.02938  -0.004123  1.529  0.3546
4.188e+09  0.872  -0.1352  -0.01529  -0.03223  -0.0007753  -0.02767  1.032  -1.059
4.192e+09  0.25  -0.8968  0.02583  -0.01542  0.0013  -0.03837  -0.4631  -1.472
4.196e+09  -0.664  -0.6714  -0.02758  -0.08264  0.0007113  -0.05292  -1.521  -0.2433
4.2e+09  -0.9078  0.2857  -0.1062  0.1178  -0.03134  -0.03541  -0.9501  1.407
4.204e+09  -0.1047  1.09  -0.02288  0.05189  -0.007269  0.02514  0.7381  1.312
4.208e+09  0.8806  0.5847  0.02716  -0.04093  -0.01411  0.02548  1.579  -0.01218
4.212e+09  0.8884  -0.4733  0.005131  -0.04819  0.0592  -0.06362  0.6376  -1.41
4.216e+09  -0.01441  -0.9681  0.1093  0.03183  0.05018  0.008812  -0.9096  -1.27
4.22e+09  -0.9381  -0.4003  0.04203  0.003038  0.04469  -0.007163  -1.459  0.3791
4.224e+09  -0.8601  0.6984  0.02656  -0.04103  -0.000402  0.02877  -0.4344  1.445
4.228e+09  0.267  1.061  0.05308  0.0005834  0.0469  0.02303  1.047  1.077
4.232e+09  1.127  0.2038  0.08321  -0.1186  0.06046  -0.07718  1.418  -0.4958
4.236e+09  0.6987  -0.7706  0.04339  0.1133  -0.02746  -0.00766  0.2259  -1.547
4.24e+09  -0.3734  -1.055  0.0192  0.1046  0.1114  0.02315  -1.304  -0.6184
4.244e+09  -1.08  -0.03607  -0.00666  -0.04423  -0.01494  0.04382  -1.384  0.8112
4.248e+09  -0.5346  0.9726  0.01276  -0.1025  0.005591  -0.009383  0.158  1.559
4.252e+09  0.7422  0.9486  0.08499  0.01279  0.005813  -0.01605  1.514  0.5803
4.256e+09  1.105  -0.189  -0.02014  0.11  0.008485  0.0077  1.145  -1.01
4.26e+09  0.2846  -1.119  0.006024  0.00544  -0.02749  0.001602  -0.3295  -1.564
4.264e+09  -0.8563  -0.7322  -0.03657  0.04173  -0.0712  -0.02647  -1.585  -0.3925
4.268e+09  -1.023  0.4684  -0.05541  -0.01078  0.01301  -0.008733  -1.098  1.436
4.272e+09  -0.008771  1.125  0.003254  0.01764  -0.1091  0.02555  0.6232  1.55
4.276e+09  0.993  0.4876  0.005818  0.03044  -0.00623  0.04306  1.647  0.1518
4.28e+09  0.9819  -0.7616  -0.02577  -0.006375  -0.02231  0.0007709  0.7171  -1.375
4.284e+09  -0.1961  -1.101  0.04427  0.04251  -0.02611  0.007574  -0.9469  -1.44
4.288e+09  -1.118  -0.3429  -0.02875  0.02133  0.004896  0.02822  -1.619  0.4024
4.292e+09  -0.7728  0.8928  0.01682  -0.1569  0.0511  -0.01528  -0.4455  1.536
4.296e+09  0.4538  1.043  0.0722  -0.05673  -0.01822  -0.08649  1.326  1.085
4.3e+09  1.055  0.06489  0.03126  0.04151  0.08178  -0.08615  1.588  -0.7542
4.304e+09  0.5135  -0.9262  0.01241  -0.02183  -0.01441  -0.01637  -0.01074  -1.597
4.308e+09  -0.6336  -0.7952  -0.06249  -0.00955  -0.0005426  -0.07627  -1.422  -0.6642
4.312e+09  -0.9941  0.1474  0.04734  -0.003763  -0.03473  0.04966  -1.293  0.9751
4.316e+09  -0.2917  0.931  0.01753  -0.1075  0.03723  -0.02038  0.2905  1.617
4.32e+09  0.6755  0.6452  0.06119  0.03748  -0.001785  0.0302  1.563  0.3492
4.324e+09  0.932  -0.3451  0.02638  -0.03841  0.012  0.04221  1.148  -1.225
4.328e+09  0.1039  -0.9337  0.01597  -0.07041  0.04373  0.01409  -0.6695  -1.53
4.332e+09  -0.7594  -0.5603  0.06062  -0.05842  0.02266  0.02894  -1.524  -0.03382
4.336e+09  -0.874  0.4066  -0.04994  -0.01345  -0.03461  -0.01158  -0.7153  1.41
4.34e+09  0.05432  0.9107  -0.02551  0.02486  0.02303  -0.03058  0.9542  1.315
4.344e+09  0.8572  0.3758  0.07513  0.05202  0.004953  -0.03488  1.462  -0.2493
4.348e+09  0.6541  -0.5554  0.0122  0.1021  -0.09964  -0.01854  0.3947  -1.387
4.352e+09  -0.2351  -0.8582  0.06682  -0.006167  -0.02654  0.01147  -1.1  -0.8329
4.356e+09  -0.9116  -0.2416  0.0791  0.1153  -0.05781  0.03168  -1.27  0.7305
4.36e+09  -0.5454  0.6932  0.0175  -0.02917  0.02655  0.06283  0.08102  1.412
4.364e+09  0.4447  0.7373  -0.04561  -0.1085  0.002005  0.0144  1.213  0.5493
4.368e+09  0.9405  -0.04764  0.002759  0.04585  0.02949  0.002499  0.9687  -0.9146
4.372e+09  0.4381  -0.7415  -0.007898  0.07207  0.02012  -0.07813  -0.3739  -1.245
4.376e+09  -0.4698  -0.708  -0.0001297  0.01202  0.003184  -0.001251  -1.314  -0.2877
4.38e+09  -0.762  0.1395  0.001509  0.04299  0.002779  -0.04593  -0.7874  0.9599
4.384e+09  -0.2855  0.7867  -0.06197  0.003696  -0.006077  0.02815  0.6144  1.162
4.388e+09  0.5923  0.5138  0.09805  0.05969  -0.02611  0.03479  1.264  -0.1085
4.392e+09  0.7204  -0.1922  -0.002355  0.001554  -0.01068  0.0005511  0.49  -1.109
4.396e+09  0.09589  -0.8343  0.01516  0.01493  0.06682  -0.03184  -0.8218  -0.8615
4.4e+09  -0.631  -0.4819  0.03942  0.0664  -0.07229  0.05945  -1.236  0.3194
4.404e+09  -0.7954  0.4203  0.03252  0.0039  0.03811  -0.003013  -0.2356  1.293
4.408e+09  0.0843  0.7972  0.1254  -0.01723  0.06183  0.01786  0.99  0.8698
4.412e+09  0.7426  0.272  0.02488  0.006584  0.04277  -0.04186  1.169  -0.4398
4.416e+09  0.6498  -0.4953  -0.01039  -0.06328  0.0007237  -0.01957  0.03653  -1.327
4.42e+09  -0.1611  -0.7456  0.05306  0.08032  -0.01548  -0.05958  -1.027  -0.5368
4.424e+09  -0.7679  -0.1913  0.00544  -0.07408  0.04552  0.0643  -0.9103  0.6805
4.428e+09  -0.4729  0.6938  0.007282  0.02312  -0.02326  0.001263  0.1786  1.169
4.432e+09  0.383  0.7928  0.09034  0.08594  -0.002981  -0.005615  1.236  0.4354
4.436e+09  0.8157  0.05515  -0.07707  -0.05424  -0.008713  0.00612  0.8158  -0.8259
4.44e+09  0.4484  -0.7322  0.0514  0.01291  0.006929  0.0224  -0.2927  -1.045
4.444e+09  -0.4543  -0.6885  0.005671  0.06282  0.002992  0.0487  -1.141  -0.02775
4.448e+09  -0.8105  0.142  -0.008208  0.05426  0.04357  0.03451  -0.6867  1.1
4.452e+09  -0.208  0.7794  -0.07743  -0.01627  -0.006696  -0.009377  0.6831  1.065
4.456e+09  0.5706  0.5902  0.01911  -0.1069  0.03759  -0.03657  1.237  -0.09606
4.46e+09  0.8096  -0.2547  -0.06788  0.06976  0.02292  0.04207  0.559  -1.107
4.464e+09  0.07426  -0.8414  -0.03802  -0.06794  -0.04215  0.0471  -0.8027  -0.9366
4.468e+09  -0.7267  -0.4672  0.0002619  -0.003522  -0.05965  -0.00775  -1.214  0.4442
4.472e+09  -0.7145  0.3852  -0.04981  0.04903  -0.05713  0.01596  -0.1531  1.209
4.476e+09  0.02999  0.8366  0.04814  -0.01125  0.02277  -0.03791  0.9644  0.7537
4.48e+09  0.749  0.2923  0.004298  -0.05876  -0.005647  0.04488  1.164  -0.6518
4.484e+09  0.6793  -0.5603  -0.1031  0.08035  0.01085  0.01854  -0.06072  -1.274
4.488e+09  -0.2343  -0.8257  0.04272  0.04229  0.003061  0.04419  -1.183  -0.5436
4.492e+09  -0.8119  -0.1845  -0.002575  -0.005818  -0.0547  -0.01251  -1.038  0.8705
4.496e+09  -0.504  0.5989  0.01559  0.07927  -0.01681  -0.02996  0.2691  1.299
4.5e+09  0.3233  0.6715  -0.07577  0.07023  0.05093  0.03629  1.254  0.1972
4.504e+09  0.766  -0.004504  -0.01412  0.05885  0.007195  0.01237  0.8416  -1.122
4.508e+09  0.3061  -0.7403  0.07494  0.08156  -0.01623  0.007039  -0.638  -1.156
4.512e+09  -0.4869  -0.6282  0.03554  -0.01122  -0.03023  0.009772  -1.29  -0.03206
4.516e+09  -0.7335  0.1059  0.04247  -0.04316  0.03368  -0.04221  -0.6333  1.195
4.52e+09  -0.1825  0.7637  -0.01193  -0.05294  0.02971  0.01354  0.7159  1.04
4.524e+09  0.4963  0.5013  0.02266  -0.0421  0.02938  -0.00247  1.235  -0.2281
4.528e+09  0.7405  -0.2615  -0.04593  0.04345  -0.02418  0.03475  0.3486  -1.216
4.532e+09  0.09264  -0.7331  0.03346  0.09349  0.01309  -0.0005111  -0.9899  -0.8383
4.536e+09  -0.5569  -0.3799  0.03308  0.0162  -0.05367  -0.0236  -1.159  0.5541
4.54e+09  -0.6491  0.4137  -0.05072  -0.02672  -0.00272  -0.01056  0.03413  1.215
4.544e+09  0.04712  0.7663  -0.03775  -0.07827  0.02805  0.06306  1.093  0.57
4.548e+09  0.6682  0.3253  -0.005473  -0.0453  -0.02243  0.02491  0.9874  -0.7426
4.552e+09  0.614  -0.4659  -0.01316  -0.008248  0.001902  0.01083  -0.213  -1.272
4.556e+09  -0.1429  -0.7624  -0.02734  0.04017  -0.02698  -0.02961  -1.089  -0.4921
4.56e+09  -0.7177  -0.1667  -0.1043  -0.0198  0.02318  0.0002832  -0.826  0.8349
4.564e+09  -0.5052  0.5071  0.02172  -0.03758  -0.01827  -0.03997  0.3604  1.126
4.568e+09  0.2685  0.6769  -0.06297  0.008925  0.03056  -0.03258  1.147  0.2024
4.572e+09  0.6929  0.1615  -0.01556  -0.05996  -0.01177  0.01044  0.6091  -0.8246
4.576e+09  0.3955  -0.5818  -0.04021  -0.009446  0.008386  0.05437  -0.5458  -0.945
4.58e+09  -0.3289  -0.608  0.1118  0.006715  0.01823  0.06057  -1.141  0.1399
4.584e+09  -0.7739  0.02137  0.0154  0.02291  -0.01389  0.06501  -0.3317  0.9124
4.588e+09  -0.337  0.7152  -0.02884  0.01165  0.05661  0.03287  0.6925  0.8152
4.592e+09  0.4808  0.6271  -0.01305  0.05768  -0.06448  -0.01233  0.9852  -0.2559
4.596e+09  0.7794  -0.1193  0.02935  0.01661  -0.001409  -0.04849  0.2649  -1.056
4.6e+09  0.2034  -0.783  0.04951  -0.004738  0.0108  0.01405  -0.864  -0.6529
4.604e+09  -0.5055  -0.513  0.0652  -0.04457  -0.00675  -0.0006204  -0.9911  0.4129
4.608e+09  -0.7317  0.2662  -0.06469  -0.04887  -0.05364  -0.004118  -0.003591  1.047
4.612e+09  -0.07982  0.7004  -0.03623  -0.08394  0.04214  0.005005  0.8636  0.5243
4.616e+09  0.557  0.3886  -0.01143  0.04919  -0.09162  -0.04199  0.761  -0.4841
4.62e+09  0.5694  -0.3666  0.0885  0.03141  -0.0778  -0.004259  -0.1254  -0.9663
4.624e+09  -0.07368  -0.7906  -0.05453  -0.06418  -0.03952  -0.02163  -0.9707  -0.302
4.628e+09  -0.6997  -0.3146  0.01972  0.1291  -0.003723  0.004122  -0.766  0.7037
4.632e+09  -0.5753  0.5348  -0.06466  0.0556  0.07207  -0.01483  0.418  0.9126
4.636e+09  0.1861  0.6534  0.03258  0.04188  0.009268  -0.01352  1.063  0.1779
4.64e+09  0.6972  0.1775  0.03419  0.03696  -0.01869  0.05037  0.5398  -0.8165
4.644e+09  0.3636  -0.5894  -0.01151  -0.006465  0.03618  -0.0001997  -0.4414  -0.8712
4.648e+09  -0.3746  -0.5612  0.03181  -0.04707  -0.034  0.004801  -1.074  0.1124
4.652e+09  -0.7487  0.08825  0.01098  0.001181  0.05912  0.02099  -0.3483  0.9526
4.656e+09  -0.2601  0.6646  -0.04446  -0.04778  -0.0087  0.06095  0.6179  0.7237
4.66e+09  0.5258  0.4877  0.02393  0.0529  -0.01005  -0.05682  0.8926  -0.2387
4.664e+09  0.6324  -0.2117  -0.06563  -0.06294  -0.02054  -0.008478  0.09396  -0.9915
4.668e+09  0.1168  -0.6613  0.04756  0.05205  -0.06529  -0.04712  -0.8145  -0.583
4.672e+09  -0.5074  -0.3701  -0.01328  0.008651  0.01777  -0.003901  -0.9365  0.4992
4.676e+09  -0.5752  0.3621  0.02069  -0.01152  0.002151  -0.005061  0.2052  1.005
4.68e+09  0.06792  0.5838  -0.003918  0.01858  -0.00495  0.05639  0.9455  0.4257
4.684e+09  0.6079  0.2338  0.08674  0.01758  0.04208  -0.07571  0.787  -0.6871
4.688e+09  0.4285  -0.402  0.037  -0.01475  -0.05554  0.02228  -0.2569  -0.9156
4.692e+09  -0.2122  -0.5861  -0.03095  -0.1118  -0.007494  -0.009199  -1.112  -0.1861
4.696e+09  -0.5501  -0.05419  -0.002482  0.04645  0.04449  0.08155  -0.6103  0.8801
4.7e+09  -0.344  0.5127  -0.0106  0.1285  -0.01642  0.03966  0.495  0.9528
4.704e+09  0.3138  0.563  -0.02959  -0.01934  -0.02539  -0.01045  0.9978  -0.06527
4.708e+09  0.6258  -0.01724  -0.1128  0.03961  0.05368  0.05541  0.3594  -0.9006
4.712e+09  0.1713  -0.5213  -0.003826  0.02413  -0.01881  0.009156  -0.656  -0.744
4.716e+09  -0.3581  -0.3956  0.01833  -0.01393  0.04619  0.03724  -1.038  0.37
4.72e+09  -0.5419  0.1429  0.02238  0.0486  -0.001712  0.03601  -0.08371  0.9895
4.724e+09  -0.05183  0.5492  -0.03207  -0.03382  0.03906  0.009391  0.8082  0.5258
4.728e+09  0.444  0.3456  -0.02317  0.01044  0.03907  -0.007424  0.819  -0.6056
4.732e+09  0.4948  -0.278  -0.04186  -0.05197  0.01914  0.01159  -0.1519  -0.9843
4.736e+09  -0.03909  -0.4834  0.06845  -0.01248  0.02534  -0.06345  -0.8983  -0.3729
4.74e+09  -0.4872  -0.2848  -0.01123  -0.02443  -0.002428  -0.05544  -0.6567  0.6773
4.744e+09  -0.4106  0.3144  -0.03237  0.06446  -0.0267  0.0214  0.3168  1.026
4.748e+09  0.07695  0.4328  0.0169  -0.05378  -0.008933  -0.02591  0.9996  0.103
4.752e+09  0.4621  0.148  -0.02373  -0.002763  -0.05534  -0.01542  0.5476  -0.8242
4.756e+09  0.374  -0.3657  0.02439  -0.0359  0.03602  -0.01658  -0.4135  -0.7945
4.76e+09  -0.172  -0.5271  0.01433  0.02776  -0.04444  -0.02193  -0.9484  0.02091
4.764e+09  -0.5284  -0.07222  0.05894  -0.08792  0.003608  0.01574  -0.3434  0.7778
4.768e+09  -0.3037  0.4399  0.0258  -0.02268  0.01865  -0.01111  0.6331  0.7172
4.772e+09  0.2388  0.439  -0.03655  -0.05803  0.0007569  -0.01889  0.745  -0.2191
4.776e+09  0.5014  -0.002187  0.07777  0.02895  -0.0427  0.009719  0.1283  -0.8706
4.78e+09  0.227  -0.5157  -0.03085  -0.05106  -0.00822  0.01557  -0.6684  -0.4589
4.784e+09  -0.3354  -0.4933  -0.03529  0.08394  0.03874  -0.04939  -0.6899  0.4013
4.788e+09  -0.5793  0.05496  0.03205  0.01994  -0.01365  -0.04737  0.01251  0.8803
4.792e+09  -0.2197  0.6053  0.01508  -0.01668  -0.0001857  0.0482  0.6976  0.403
4.796e+09  0.4095  0.4573  0.03607  -0.03542  -0.02911  -0.01278  0.6994  -0.4579
4.8e+09  0.6203  -0.206  -0.03104  0.0367  -0.000491  -0.000637  -0.1252  -0.8061
4.804e+09  0.091  -0.5736  0.05437  -0.006774  -0.04582  0.006297  -0.814  -0.2168
4.808e+09  -0.4559  -0.3804  0.03494  0.0273  0.0003729  0.01093  -0.5758  0.6768
4.812e+09  -0.5275  0.2985  0.05738  0.03121  -0.04766  -0.03302  0.2606  0.6908
4.816e+09  0.01014  0.6433  0.02376  -0.03078  0.001031  -0.01539  0.8045  0.07368
4.82e+09  0.5251  0.2737  0.01175  -0.08249  0.01385  -0.03658  0.4174  -0.5723
4.824e+09  0.5044  -0.3894  0.009928  -0.04844  0.01254  -0.0149  -0.3494  -0.6988
4.828e+09  -0.07581  -0.6739  0.06098  -0.05164  -0.01617  0.01546  -0.8474  -0.03192
4.832e+09  -0.7176  -0.2689  -0.0405  -0.08766  0.006917  0.008008  -0.3898  0.7331
4.836e+09  -0.4578  0.5252  0.06742  0.05825  0.04766  0.02579  0.5311  0.6222
4.84e+09  0.2531  0.6857  -0.01982  -0.03081  -0.006473  0.03934  0.8581  -0.1233
4.844e+09  0.7304  0.09213  -0.03123  0.03235  -0.02852  0.01199  0.2634  -0.8051
4.848e+09  0.3455  -0.6238  -0.03216  0.02373  -0.009527  -0.02118  -0.5879  -0.6355
4.852e+09  -0.3294  -0.6302  -0.003326  -0.005662  -0.04403  -0.02168  -0.6845  0.3644
4.856e+09  -0.7132  0.0399  -0.01827  0.0008148  0.008827  0.04197  -0.163  0.793
4.86e+09  -0.211  0.691  0.01403  0.04208  -0.04094  -0.005715  0.79  0.4968
4.864e+09  0.445  0.5204  -0.008661  0.07223  -0.1131  0.001214  0.7549  -0.394
4.868e+09  0.644  -0.19  0.04005  0.005283  -0.01434  0.01431  -0.09779  -0.8289
4.872e+09  0.1071  -0.6514  -0.007998  0.02135  0.0327  -0.004123  -0.7804  -0.3218
4.876e+09  -0.5917  -0.4067  0.05832  -0.007557  0.0319  0.06767  -0.6723  0.5824
4.88e+09  -0.5809  0.2923  -0.01509  -0.004721  0.05998  -0.01994  0.2243  0.832
4.884e+09  0.03033  0.6445  0.03896  0.05984  0.05335  0.009578  0.8548  0.1746
4.888e+09  0.6074  0.2379  0.02256  -0.05799  0.009672  0.03222  0.5635  -0.6623
4.892e+09  0.3863  -0.4361  -8.025e-05  -0.02228  -0.04441  -0.006865  -0.5148  -0.8042
4.896e+09  -0.1637  -0.6349  0.02237  0.02252  -0.009181  0.02493  -0.7928  0.03488
4.9e+09  -0.6007  -0.07934  -0.0152  -0.009986  0.02687  -0.004576  -0.3701  0.8211
4.904e+09  -0.3477  0.5009  -0.001787  0.06321  -0.01505  0.0398  0.6307  0.5637
4.908e+09  0.2423  0.5006  0.05853  -0.02233  0.03067  0.0222  0.8994  -0.3342
4.912e+09  0.6135  -0.02007  0.03466  -0.02092  0.04334  -0.0007557  0.1137  -0.8714
4.916e+09  0.2366  -0.4841  -0.07424  0.04646  -0.003191  -0.01065  -0.7328  -0.4002
4.92e+09  -0.3216  -0.3795  -0.006356  0.0173  0.0009817  0.01328  -0.7419  0.4594
4.924e+09  -0.489  0.08769  0.05513  0.01932  -0.02214  0.01292  0.2228  0.8946
4.928e+09  -0.08499  0.4274  0.06133  0.02269  -9.01e-05  0.01785  0.7685  0.2195
4.932e+09  0.4008  0.2959  0.01151  0.03695  0.00775  0.008082  0.5487  -0.6506
4.936e+09  0.4118  -0.1206  -0.04621  -0.03363  -0.02485  0.01134  -0.3691  -0.8233
4.94e+09  0.04767  -0.4173  -0.02643  -0.0586  -0.0191  0.01391  -0.8597  -0.09601
4.944e+09  -0.3842  -0.2261  0.04065  -0.02703  -0.03571  0.009304  -0.3827  0.743
4.948e+09  -0.3746  0.1937  -0.03625  -0.05088  -0.02797  0.006304  0.4608  0.6347
4.952e+09  0.08442  0.3935  -0.09913  0.0403  -0.02728  -0.04964  0.7943  -0.1349
4.956e+09  0.3885  0.1385  -0.03709  -0.003423  0.01016  0.006859  0.2018  -0.7467
4.96e+09  0.3267  -0.2374  0.07034  0.02242  -0.001095  0.0003216  -0.537  -0.442
4.964e+09  -0.07901  -0.3909  0.01041  0.03716  0.01131  0.001467  -0.6554  0.2977
4.968e+09  -0.411  -0.07429  0.03808  -0.09388  -0.001095  0.06633  -0.01615  0.7645
4.972e+09  -0.2442  0.327  0.02822  0.09655  0.0189  0.03345  0.561  0.3219
4.976e+09  0.1881  0.3429  0.02324  0.0185  -0.01306  -0.01442  0.644  -0.3267
4.98e+09  0.3913  -0.07677  -0.0612  0.02861  0.009195  0.02398  -0.07005  -0.7257
