# Hz S RI R 50
4e+09  2.322  0.9809  -0.08437  2.505  -2.018  -1.049  0.5244  -2.657
4.004e+09  0.6746  -0.2421  -0.3815  -0.2631  -0.2815  0.09308  0.1221  0.5489
4.008e+09  0.1339  -0.7172  -0.4374  0.2758  0.06295  0.3219  0.353  0.2075
4.012e+09  -0.568  -0.3658  0.06112  0.546  0.2885  0.1414  0.3008  -0.2537
4.016e+09  -0.6109  0.4129  0.513  0.1336  0.3131  -0.2356  -0.1829  -0.5636
4.02e+09  0.15  0.6787  0.2882  -0.3279  -0.1046  -0.4032  -0.6232  -0.1983
4.024e+09  0.6292  0.2066  -0.2027  -0.4535  -0.3768  -0.1048  -0.3439  0.3457
4.028e+09  0.4894  -0.4354  -0.4248  -0.1107  -0.1841  0.289  0.06489  0.3985
4.032e+09  -0.28  -0.6042  -0.2619  0.4817  0.1465  0.3489  0.4199  0.09532
4.036e+09  -0.632  -0.1242  0.4488  0.3967  0.3307  0.02272  0.2587  -0.2816
4.04e+09  -0.3895  0.6013  0.556  -0.07198  0.06953  -0.3541  -0.07744  -0.4506
4.044e+09  0.4239  0.5261  0.003475  -0.4536  -0.2412  -0.2627  -0.5529  -0.06691
4.048e+09  0.6318  -0.06316  -0.4612  -0.1429  -0.2856  0.142  -0.3627  0.3982
4.052e+09  0.226  -0.6295  -0.3003  0.2551  -0.05241  0.3118  0.2278  0.3873
4.056e+09  -0.4673  -0.4603  0.1425  0.3914  0.1892  0.1516  0.3246  -0.01075
4.06e+09  -0.6299  0.1003  0.3877  0.08004  0.1912  -0.1968  0.1272  -0.4114
4.064e+09  -0.06501  0.6449  0.2772  -0.3314  -0.02916  -0.3035  -0.2591  -0.3742
4.068e+09  0.5229  0.3137  -0.2141  -0.4047  -0.32  -0.1135  -0.3863  0.138
4.072e+09  0.5557  -0.3127  -0.4862  -0.1315  -0.2244  0.2357  -0.1437  0.3828
4.076e+09  0.04635  -0.5938  -0.08875  0.4322  0.1391  0.2767  0.268  0.3433
4.08e+09  -0.6009  -0.2868  0.3023  0.1762  0.3216  -0.0057  0.3043  -0.2228
4.084e+09  -0.4594  0.3991  0.4974  -0.07035  0.1973  -0.308  0.1752  -0.4415
4.088e+09  0.1732  0.6239  0.1403  -0.3858  -0.145  -0.2683  -0.2832  -0.3067
4.092e+09  0.5987  0.1241  -0.2946  -0.2585  -0.3259  0.1146  -0.36  0.07898
4.096e+09  0.3693  -0.4731  -0.388  0.235  -0.05783  0.3127  -0.1244  0.3911
4.1e+09  -0.2775  -0.5449  -0.0122  0.3014  0.2501  0.2195  0.2757  0.09809
4.104e+09  -0.569  0.0565  0.3242  0.1082  0.2092  -0.1488  0.2974  -0.2399
4.108e+09  -0.2268  0.5008  0.3179  -0.3278  0.05699  -0.2464  -0.1042  -0.3842
4.112e+09  0.2789  0.4435  -0.2217  -0.1723  -0.226  -0.1319  -0.4009  -0.2343
4.116e+09  0.6222  -0.09322  -0.3686  -0.039  -0.2473  0.162  -0.271  0.2289
4.12e+09  0.1498  -0.5275  -0.2643  0.3708  0.1062  0.3471  0.243  0.3205
4.124e+09  -0.4267  -0.4577  0.1978  0.427  0.317  0.0466  0.3943  0.03674
4.128e+09  -0.5109  0.2401  0.4128  0.07823  0.2197  -0.2293  0.2134  -0.3496
4.132e+09  -0.09937  0.4552  0.06505  -0.4119  -0.1813  -0.3037  -0.1907  -0.2607
4.136e+09  0.439  0.3392  -0.2295  -0.269  -0.2544  -0.09449  -0.3766  0.1058
4.14e+09  0.5475  -0.1237  -0.3324  0.1759  -0.1203  0.2865  0.02388  0.3604
4.144e+09  0.01874  -0.5285  0.01962  0.3993  0.1307  0.2097  0.3242  0.1884
4.148e+09  -0.5022  -0.3134  0.2205  0.1114  0.3542  -0.07738  0.2907  -0.1648
4.152e+09  -0.4622  0.224  0.2965  -0.2476  0.09139  -0.2539  -0.07479  -0.3826
4.156e+09  -0.01683  0.5885  0.01564  -0.3622  -0.2194  -0.2142  -0.3771  -0.03861
4.16e+09  0.5196  0.2129  -0.3623  -0.08901  -0.2465  0.1754  -0.2174  0.2968
4.164e+09  0.5067  -0.3065  -0.172  0.3224  -0.007244  0.2927  0.091  0.3005
4.168e+09  -0.08659  -0.5357  0.1832  0.4627  0.2195  0.1223  0.4045  -0.03108
4.172e+09  -0.6076  -0.09489  0.3242  -0.02341  0.2388  -0.1501  0.1679  -0.2828
4.176e+09  -0.333  0.4493  0.1442  -0.2701  -0.104  -0.2991  -0.2598  -0.235
4.18e+09  0.1889  0.4998  -0.2964  -0.3664  -0.3009  -0.0482  -0.3225  0.06881
4.184e+09  0.5204  0.06109  -0.4419  0.1174  -0.194  0.2706  -0.08749  0.3231
4.188e+09  0.291  -0.4937  -0.03683  0.3907  0.06371  0.2725  0.1559  0.2098
4.192e+09  -0.291  -0.5042  0.3235  0.2267  0.2465  -0.01949  0.3389  -0.2165
4.196e+09  -0.609  0.0243  0.412  -0.1667  0.1328  -0.2601  -0.1611  -0.3255
4.2e+09  -0.2303  0.4834  0.1999  -0.4781  -0.1313  -0.2094  -0.2108  -0.1881
4.204e+09  0.3326  0.4817  -0.3125  -0.08438  -0.2458  0.02136  -0.1697  0.2804
4.208e+09  0.6395  -0.09825  -0.2541  0.2757  -0.01217  0.2439  0.1093  0.2574
4.212e+09  0.2431  -0.5568  0.1982  0.4283  0.22  0.188  0.4169  -0.1018
4.216e+09  -0.477  -0.4863  0.3568  0.05906  0.249  -0.09878  0.1741  -0.4188
4.22e+09  -0.5721  0.29  0.214  -0.3241  0.06401  -0.3818  -0.3135  -0.3568
4.224e+09  -0.04277  0.6365  -0.239  -0.3287  -0.2637  -0.1839  -0.3645  0.004264
4.228e+09  0.5593  0.4322  -0.4189  0.118  -0.2847  0.1674  -0.01166  0.3154
4.232e+09  0.5426  -0.3952  -0.08585  0.386  0.02291  0.2902  0.4248  0.1739
4.236e+09  -0.004399  -0.6149  0.3628  0.2418  0.2633  0.06088  0.3887  -0.1326
4.24e+09  -0.5972  -0.2875  0.429  -0.1861  0.2678  -0.1776  0.1415  -0.4256
4.244e+09  -0.4539  0.4118  -0.001897  -0.3143  -0.1481  -0.1954  -0.4426  -0.2889
4.248e+09  0.1734  0.5986  -0.4443  -0.1218  -0.2551  -0.02335  -0.4004  0.2905
4.252e+09  0.6095  0.1082  -0.31  0.3017  -0.1259  0.2546  0.1442  0.473
4.256e+09  0.3801  -0.4498  0.1745  0.4095  0.1774  0.2347  0.5013  0.1483
4.26e+09  -0.2164  -0.5052  0.4085  0.07795  0.2785  -0.1024  0.4052  -0.3069
4.264e+09  -0.5677  -0.0646  0.23  -0.266  0.01807  -0.2782  -0.0985  -0.4022
4.268e+09  -0.3444  0.5732  -0.2374  -0.3185  -0.1741  -0.1661  -0.439  -0.113
4.272e+09  0.3648  0.5349  -0.459  0.06804  -0.1992  0.08699  -0.342  0.4353
4.276e+09  0.5338  -0.08734  -0.08504  0.3321  0.0406  0.2262  0.1533  0.3867
4.28e+09  0.1757  -0.6061  0.248  0.2781  0.2334  0.138  0.6165  -0.04275
4.284e+09  -0.3707  -0.426  0.2684  -0.05423  0.2101  -0.1831  0.253  -0.3398
4.288e+09  -0.515  0.1877  0.03808  -0.3191  -0.1092  -0.2845  -0.3267  -0.4007
4.292e+09  -0.05189  0.5835  -0.3298  -0.174  -0.2681  -0.05668  -0.6036  0.1398
4.296e+09  0.4647  0.3389  -0.2972  0.2344  -0.1465  0.2384  -0.04551  0.5773
4.3e+09  0.4453  -0.2299  0.1713  0.2989  0.18  0.2139  0.3837  0.4099
4.304e+09  -0.08831  -0.5029  0.2967  0.1357  0.3054  -0.06495  0.4352  -0.2988
4.308e+09  -0.4793  -0.1628  0.2329  -0.3417  0.1342  -0.2839  0.1157  -0.5545
4.312e+09  -0.44  0.3581  -0.1694  -0.2442  -0.1836  -0.09105  -0.4227  -0.289
4.316e+09  0.05216  0.5376  -0.3723  -0.02287  -0.2602  0.02115  -0.4382  0.3343
4.32e+09  0.4304  0.07837  -0.1106  0.4624  -0.08026  0.2562  -0.06347  0.4615
4.324e+09  0.3327  -0.3929  0.28  0.1824  0.2598  0.1432  0.4641  0.2193
4.328e+09  -0.136  -0.4588  0.2215  -0.1023  0.2516  -0.1478  0.4861  -0.3307
4.332e+09  -0.422  -0.1064  0.1398  -0.3451  -0.007606  -0.2904  -0.1369  -0.4984
4.336e+09  -0.2299  0.3334  -0.3056  -0.2709  -0.2821  -0.07161  -0.4659  -0.2571
4.34e+09  0.2189  0.4131  -0.3501  0.1248  -0.2606  0.177  -0.3767  0.3441
4.344e+09  0.5049  -0.03269  -0.06605  0.4398  0.07273  0.2595  0.04738  0.4046
4.348e+09  0.2379  -0.381  0.2124  0.1541  0.2422  0.01359  0.5109  0.1147
4.352e+09  -0.2958  -0.3723  0.1874  -0.248  0.1253  -0.1925  0.3041  -0.4376
4.356e+09  -0.392  0.1407  -0.1002  -0.3252  -0.1286  -0.1908  -0.2413  -0.2876
4.36e+09  -0.09175  0.3537  -0.2946  -0.003718  -0.1758  0.03228  -0.4462  0.1125
4.364e+09  0.3926  0.2666  -0.08854  0.2472  -0.05695  0.191  -0.1166  0.471
4.368e+09  0.3466  -0.2054  0.1922  0.3141  0.189  0.1672  0.2434  0.2529
4.372e+09  -0.03858  -0.4282  0.4116  -0.04216  0.2043  -0.06501  0.471  -0.2028
4.376e+09  -0.4345  -0.2557  0.1228  -0.3531  -0.01173  -0.2347  0.06724  -0.3967
4.38e+09  -0.3372  0.2208  -0.2215  -0.2125  -0.2457  -0.1372  -0.329  -0.181
4.384e+09  0.02389  0.424  -0.2502  0.1236  -0.2429  0.103  -0.3638  0.2572
4.388e+09  0.3773  0.1512  -0.02273  0.3337  0.03091  0.2063  -0.009451  0.3314
4.392e+09  0.2309  -0.2931  0.1988  0.1652  0.2834  0.1083  0.2884  0.1539
4.396e+09  -0.1655  -0.3666  0.1898  -0.221  0.1735  -0.1628  0.2539  -0.1712
4.4e+09  -0.3478  -0.07435  -0.2009  -0.2131  -0.05268  -0.2391  0.06429  -0.3457
4.404e+09  -0.2518  0.3145  -0.3151  0.0177  -0.2772  0.04156  -0.2582  0.06026
4.408e+09  0.1626  0.3633  -0.1687  0.2444  -0.1498  0.1906  -0.1555  0.3178
4.412e+09  0.3712  -0.03974  0.1986  0.2694  0.1214  0.2318  0.2031  0.237
4.416e+09  0.1527  -0.407  0.3868  -0.01988  0.3409  -0.03686  0.4401  -0.02149
4.42e+09  -0.3122  -0.3316  0.1662  -0.3116  0.1325  -0.2342  0.04706  -0.3277
4.424e+09  -0.4457  0.1324  -0.2721  -0.2332  -0.2143  -0.179  -0.1768  -0.2816
4.428e+09  -0.07507  0.3769  -0.2417  0.1241  -0.2119  0.08145  -0.3188  0.1627
4.432e+09  0.3856  0.238  -0.03208  0.3264  -0.01893  0.2236  -0.08028  0.2523
4.436e+09  0.335  -0.1546  0.1932  0.2081  0.2366  0.148  0.2553  0.1226
4.44e+09  0.006417  -0.4586  0.2838  -0.1266  0.221  -0.11  0.2743  -0.197
4.444e+09  -0.3474  -0.213  -0.0624  -0.2654  -0.02935  -0.2518  -0.02332  -0.3396
4.448e+09  -0.3922  0.1908  -0.3705  -0.06207  -0.234  -0.0564  -0.2835  -0.0358
4.452e+09  0.03697  0.4292  -0.1819  0.1407  -0.1688  0.146  -0.1491  0.1603
4.456e+09  0.411  0.1349  0.1881  0.3181  0.07533  0.2074  0.1488  0.3027
4.46e+09  0.3344  -0.3904  0.2796  -0.01147  0.2046  0.02185  0.3429  -0.05338
4.464e+09  -0.1331  -0.3772  0.1998  -0.3227  0.1153  -0.1815  0.1227  -0.2417
4.468e+09  -0.4407  -0.05677  -0.2057  -0.208  -0.07284  -0.2012  -0.1524  -0.2139
4.472e+09  -0.3161  0.3124  -0.2785  0.05947  -0.2215  0.02067  -0.2117  -0.02176
4.476e+09  0.1801  0.4383  -0.01853  0.3003  -0.08229  0.2417  -0.04344  0.2721
4.48e+09  0.4584  -0.02294  0.2097  0.06672  0.2232  0.1861  0.2556  0.2155
4.484e+09  0.1447  -0.4004  0.1589  -0.1074  0.192  -0.04429  0.2734  -0.1592
4.488e+09  -0.1877  -0.3867  -0.04349  -0.312  0.05583  -0.2181  -0.06821  -0.3312
4.492e+09  -0.4186  0.05601  -0.2665  -0.1052  -0.1605  -0.0986  -0.307  -0.04666
4.496e+09  -0.1592  0.3875  -0.2741  0.1799  -0.1533  0.1775  -0.3204  0.2509
4.5e+09  0.334  0.2339  -0.0637  0.3204  0.03102  0.1739  -0.02284  0.3191
4.504e+09  0.3437  -0.1079  0.2928  0.01913  0.2427  0.1015  0.3305  0.04547
4.508e+09  0.08564  -0.4488  0.07145  -0.2378  0.174  -0.1672  0.2324  -0.3238
4.512e+09  -0.3494  -0.241  -0.1397  -0.2457  -0.07693  -0.1672  -0.08128  -0.3347
4.516e+09  -0.435  0.139  -0.2389  0.1213  -0.2519  0.002769  -0.3479  0.005928
4.52e+09  -0.02  0.436  -0.08776  0.2392  -0.1115  0.2354  -0.2268  0.2916
4.524e+09  0.3412  0.1624  0.1328  0.1286  0.1337  0.1476  0.1602  0.2662
4.528e+09  0.3302  -0.2264  0.2225  -0.06458  0.2199  -0.01744  0.4017  -0.02186
4.532e+09  0.01659  -0.392  0.07474  -0.209  0.03529  -0.2409  0.1089  -0.3945
4.536e+09  -0.3433  -0.2005  -0.3215  -0.185  -0.1845  -0.1242  -0.2797  -0.2757
4.54e+09  -0.3531  0.2527  -0.1126  0.1449  -0.2369  0.07454  -0.298  0.06684
4.544e+09  0.0376  0.4454  0.07626  0.2483  -0.01436  0.2013  -0.08621  0.4314
4.548e+09  0.4253  0.1613  0.2002  0.07396  0.1704  0.1162  0.2969  0.2518
4.552e+09  0.2976  -0.2999  0.252  -0.1453  0.153  -0.1131  0.3234  -0.1483
4.556e+09  -0.1562  -0.364  -0.1742  -0.2743  -0.06517  -0.203  -0.02923  -0.4232
4.56e+09  -0.3646  -0.05393  -0.2032  -0.01226  -0.1849  -0.05511  -0.2735  -0.1967
4.564e+09  -0.1965  0.333  -0.05639  0.1938  -0.06567  0.1195  -0.2888  0.2402
4.568e+09  0.1867  0.2947  0.1392  0.1275  0.04907  0.1988  0.0609  0.3277
4.572e+09  0.4255  -0.0001368  0.2208  -0.04487  0.1978  -0.01445  0.4453  0.08701
4.576e+09  0.1492  -0.3166  0.09652  -0.2851  0.1129  -0.1494  0.3126  -0.2238
4.58e+09  -0.2367  -0.314  -0.2897  -0.169  -0.1478  -0.1691  -0.1314  -0.2894
4.584e+09  -0.3275  0.04824  -0.2177  0.149  -0.2085  -0.0001307  -0.3746  -0.01133
4.588e+09  -0.1386  0.3585  0.05779  0.2705  -0.06084  0.1548  -0.3183  0.3087
4.592e+09  0.2436  0.3199  0.3791  0.1398  0.13  0.1545  0.1683  0.3141
4.596e+09  0.3354  -0.08496  0.1204  -0.1243  0.1687  -0.0608  0.3219  -0.02552
4.6e+09  0.1003  -0.3245  -0.07681  -0.2647  0.05524  -0.2233  0.1833  -0.3627
4.604e+09  -0.3031  -0.2217  -0.2221  -0.09299  -0.1965  -0.1398  -0.2635  -0.255
4.608e+09  -0.3244  0.1479  -0.1043  0.1887  -0.2219  0.1661  -0.3067  0.0006954
4.612e+09  0.01651  0.4009  0.1673  0.202  0.008491  0.2268  -0.09393  0.2533
4.616e+09  0.3442  0.1624  0.2846  -0.06791  0.2227  0.06482  0.2668  0.204
4.62e+09  0.3231  -0.1865  0.09709  -0.1888  0.1338  -0.1253  0.2253  -0.05391
4.624e+09  -0.06428  -0.3543  -0.1623  -0.1958  -0.1073  -0.2356  0.01501  -0.3668
4.628e+09  -0.3042  -0.08436  -0.3002  0.06706  -0.1454  -0.00894  -0.3693  -0.2179
4.632e+09  -0.2403  0.218  0.1016  0.2186  -0.113  0.1785  -0.374  0.1468
4.636e+09  0.06429  0.3361  0.1855  0.152  0.2067  0.1696  0.04351  0.3691
4.64e+09  0.3219  0.09326  0.3  -0.1177  0.1506  -0.02984  0.2998  0.1725
4.644e+09  0.1883  -0.2525  0.03598  -0.2828  0.04441  -0.2375  0.2479  -0.2238
4.648e+09  -0.1274  -0.3188  -0.2884  0.003076  -0.203  -0.1324  -0.04978  -0.3974
4.652e+09  -0.3098  -0.04036  -0.1784  0.1487  -0.1582  0.01195  -0.3194  -0.05765
4.656e+09  -0.1284  0.2928  0.1061  0.1812  -0.002344  0.2444  -0.104  0.1836
4.66e+09  0.09671  0.2353  0.2521  -0.01178  0.2215  0.1105  0.08615  0.2426
4.664e+09  0.3229  -0.01421  0.139  -0.194  0.2009  -0.1049  0.3076  0.08304
4.668e+09  0.07188  -0.2571  -0.1393  -0.1832  -0.03248  -0.2533  0.1285  -0.2714
4.672e+09  -0.1898  -0.2001  -0.2185  0.05729  -0.1968  -0.06616  -0.1812  -0.2348
4.676e+09  -0.2653  0.1327  -0.06544  0.2245  -0.1497  0.1181  -0.2657  0.04336
4.68e+09  -0.007811  0.273  0.2128  0.1847  0.08515  0.1953  -0.05934  0.2243
4.684e+09  0.2218  0.1278  0.2738  -0.08272  0.1954  0.07535  0.2276  0.1941
4.688e+09  0.2333  -0.059  -0.00211  -0.265  0.07161  -0.2097  0.1986  -0.1001
4.692e+09  -0.008339  -0.2304  -0.1898  -0.1129  -0.1031  -0.1672  0.09761  -0.2195
4.696e+09  -0.2668  -0.04664  -0.1792  0.1754  -0.2307  0.04815  -0.2648  -0.17
4.7e+09  -0.1932  0.1636  0.01693  0.1987  -0.1037  0.163  -0.1408  0.07242
4.704e+09  0.01789  0.2382  0.3001  0.00771  0.1502  0.04357  0.04586  0.1987
4.708e+09  0.2674  0.1108  0.1257  -0.224  0.1225  -0.04651  0.2261  0.04105
4.712e+09  0.0882  -0.1963  -0.1664  -0.197  -0.02873  -0.2162  0.2228  -0.1323
4.716e+09  -0.1317  -0.2492  -0.2165  0.06857  -0.1252  -0.1055  -0.01381  -0.201
4.72e+09  -0.2414  0.02167  -0.08329  0.2732  -0.164  0.1801  -0.2194  -0.1127
4.724e+09  -0.07842  0.1832  0.178  0.1888  0.0326  0.1877  -0.1593  0.2049
4.728e+09  0.1605  0.1595  0.2175  -0.01073  0.1267  0.1053  0.1323  0.1586
4.732e+09  0.2479  -0.1254  0.0878  -0.253  0.1513  -0.1155  0.2694  -0.07807
4.736e+09  -0.0006816  -0.2873  -0.1353  -0.1275  -0.0623  -0.1798  0.1362  -0.2137
4.74e+09  -0.1869  -0.1672  -0.1735  0.133  -0.1319  -0.08534  -0.1866  -0.1457
4.744e+09  -0.1795  0.1405  0.07057  0.2401  -0.1033  0.2008  -0.2035  0.1345
4.748e+09  -0.03869  0.2812  0.1951  0.08083  0.05794  0.1537  -0.02326  0.2893
4.752e+09  0.228  0.1325  0.1825  -0.1517  0.1947  -0.04145  0.19  0.2009
4.756e+09  0.1543  -0.1437  -0.05812  -0.1564  0.06792  -0.2322  0.2498  -0.08698
4.76e+09  -0.02586  -0.2068  -0.1573  0.08069  -0.1203  -0.109  -0.03353  -0.1085
4.764e+09  -0.189  -0.08038  -0.0945  0.2054  -0.1959  0.04965  -0.1926  -0.02353
4.768e+09  -0.1224  0.2544  0.04155  0.1525  -0.09937  0.1905  -0.1323  0.1634
4.772e+09  0.1148  0.2419  0.1742  -0.0909  0.1057  0.06345  0.04713  0.1649
4.776e+09  0.2408  -0.007445  0.000841  -0.2141  0.1621  -0.1231  0.2605  -0.01342
4.78e+09  0.1262  -0.2067  -0.1884  -0.1124  0.03818  -0.1299  0.1727  -0.1733
4.784e+09  -0.1247  -0.2399  -0.3388  0.04692  -0.1209  -0.1134  -0.1831  -0.1746
4.788e+09  -0.254  -0.01267  -0.02839  0.2858  -0.146  0.1408  -0.2541  -0.05631
4.792e+09  -0.128  0.2736  0.2752  0.08459  0.07359  0.1653  -0.03604  0.2294
4.796e+09  0.1699  0.2496  0.1848  -0.1885  0.1667  0.0775  0.127  0.1465
4.8e+09  0.2608  -0.05446  -0.03451  -0.2955  0.1339  -0.1253  0.1729  -0.04269
4.804e+09  0.05258  -0.2282  -0.176  0.000252  -0.06893  -0.1227  0.01932  -0.1979
4.808e+09  -0.133  -0.184  -0.1104  0.08074  -0.1186  -0.007488  -0.2429  -0.09583
4.812e+09  -0.323  0.1481  0.08439  0.2798  -0.06116  0.1251  -0.2333  0.07106
4.816e+09  -0.06431  0.2824  0.2448  -0.02288  0.1815  0.1364  -0.02753  0.2868
4.82e+09  0.2331  0.1976  0.09995  -0.176  0.1731  -0.01663  0.2688  0.07142
4.824e+09  0.2528  -0.134  -0.1256  -0.1725  0.05036  -0.1891  0.1449  -0.1319
4.828e+09  0.001595  -0.3193  -0.2134  -0.01555  -0.1488  -0.114  -0.02542  -0.2483
4.832e+09  -0.3169  -0.1361  -0.04642  0.1831  -0.1823  0.09172  -0.2138  -0.1392
4.836e+09  -0.2205  0.1548  0.0981  0.07637  -0.04212  0.1323  -0.1514  0.1592
4.84e+09  0.02041  0.2982  0.1279  -0.1005  0.095  0.07121  0.1642  0.09533
4.844e+09  0.3179  0.08029  -0.0446  -0.2336  0.1334  -0.0663  0.2631  0.016
4.848e+09  0.2176  -0.2295  -0.2113  -0.08681  -0.02703  -0.1803  0.131  -0.1655
4.852e+09  -0.1146  -0.3068  -0.1595  0.1895  -0.1447  -0.03509  -0.08091  -0.1089
4.856e+09  -0.3356  -0.0947  0.1198  0.2094  -0.1687  0.1067  -0.152  0.04762
4.86e+09  -0.2291  0.284  0.2383  0.02718  0.05296  0.1323  -0.01489  0.1216
4.864e+09  0.1341  0.2054  0.1372  -0.1657  0.1911  0.0934  0.08968  0.09945
4.868e+09  0.3137  0.02012  -0.05478  -0.2072  0.06825  -0.1715  0.2006  0.02432
4.872e+09  0.164  -0.2362  -0.2021  0.03483  -0.072  -0.157  -0.0119  -0.1601
4.876e+09  -0.1872  -0.2351  -0.0001427  0.1401  -0.1409  0.06488  -0.1672  -0.1385
4.88e+09  -0.2572  0.003127  0.2141  0.08259  -0.01357  0.1755  -0.1575  0.1298
4.884e+09  -0.1376  0.2714  0.1268  -0.08303  0.0987  0.07114  -0.04561  0.1211
4.888e+09  0.1693  0.2822  0.02258  -0.2034  0.119  -0.1032  0.1127  0.02859
4.892e+09  0.3102  -0.05385  -0.1477  -0.01258  0.04437  -0.16  0.1224  -0.04436
4.896e+09  0.04208  -0.2437  -0.1674  0.106  -0.1478  -0.08881  -0.07333  -0.08365
4.9e+09  -0.233  -0.149  0.07273  0.1572  -0.1228  0.06515  -0.09976  -0.03515
4.904e+09  -0.2741  0.05853  0.2755  0.00266  0.03625  0.1979  -0.1043  0.0594
4.908e+09  0.003954  0.2645  0.07622  -0.2097  0.1641  0.08381  0.1019  0.1337
4.912e+09  0.2196  0.1778  -0.09462  -0.1727  0.08259  -0.1365  0.09683  0.0397
4.916e+09  0.3  -0.1349  -0.1668  0.06029  -0.114  -0.1447  0.02381  -0.1496
4.92e+09  0.004315  -0.2371  -0.05733  0.2158  -0.1652  0.006431  -0.09368  -0.06146
4.924e+09  -0.198  -0.09725  0.1447  0.1566  -0.07199  0.1336  -0.07492  -0.03876
4.928e+09  -0.1582  0.1021  0.233  -0.07358  0.05223  0.1471  -0.06879  0.08006
4.932e+09  0.03445  0.2391  0.02715  -0.1889  0.1814  -0.04147  0.07064  0.02852
4.936e+09  0.1417  0.06345  -0.2286  -0.03372  0.03509  -0.09523  0.1393  0.04022
4.94e+09  0.1696  -0.1511  -0.2209  0.06404  -0.1108  -0.119  0.01824  -0.1324
4.944e+09  -0.02345  -0.1428  0.03251  0.09953  -0.156  0.0103  -0.04284  -0.1219
4.948e+09  -0.1514  -0.07443  0.199  0.04509  0.007909  0.119  -0.1054  0.03699
4.952e+09  -0.09484  0.1281  0.166  -0.08731  0.1376  0.05224  0.07302  0.1644
4.956e+09  0.05703  0.1675  -0.08843  -0.125  0.08374  -0.1515  0.1062  0.04231
4.96e+09  0.1162  0.01709  -0.161  0.006814  -0.003135  -0.2486  0.05198  -0.05083
4.964e+09  0.05414  -0.07448  -0.06325  0.2023  -0.1201  -0.04775  -0.09014  -0.1464
4.968e+09  -0.06068  -0.08473  0.1027  0.1616  -0.09972  0.1157  -0.06138  -0.01693
4.972e+09  -0.129  -0.002297  0.1247  -0.04749  0.08765  0.1551  -0.04339  0.06832
4.976e+09  -0.008791  0.1118  0.08771  -0.07171  0.1787  -0.001748  0.04638  0.103
4.98e+09  0.1009  0.09817  -0.1542  -0.1052  0.1002  -0.1902  0.1179  -0.03408
4.984e+09  0.04918  -0.05577  -0.1756  0.1745  -0.0325  -0.1526  0.00277  -0.1066
4.988e+09  -0.02053  -0.1668  0.02825  0.1812  -0.1557  0.02905  -0.09671  -0.05347
4.992e+09  -0.1499  -0.06275  0.1769  0.1023  0.01819  0.1742  -0.1097  0.004794
4.996e+09  -0.09796  0.03821  0.1158  -0.1019  0.09982  0.1164  -0.05108  0.03029
5e+09  -0.01265  0.08746  -0.1573  -0.1261  0.1462  -0.112  -0.0001944  -0.04895
5.004e+09  0.07084  0.06414  -0.1663  -0.08597  0.05553  -0.1624  0.1062  -0.01017
5.008e+09  0.04154  -0.06961  -0.02184  0.1414  -0.1366  -0.0946  -0.04453  -0.094
