# Hz S RI R 50
4e+09  -0.985  -0.6417  0.7248  -4.011  0.1983  -2.076  4.054  0.3744
4.004e+09  -0.0916  0.3569  -0.5206  -0.246  -0.0362  -0.01535  0.5643  0.5529
4.008e+09  0.3359  0.1725  -0.4786  0.3928  -0.06813  0.009729  0.7616  -0.2334
4.012e+09  0.3303  -0.1601  0.1787  0.5766  0.04511  0.02789  0.01892  -0.7133
4.016e+09  0.03883  -0.3998  0.5317  -0.005612  0.05619  0.02845  -0.6001  -0.4386
4.02e+09  -0.3472  -0.1991  0.4169  -0.4743  -0.05347  -0.004703  -0.5791  0.3331
4.024e+09  -0.3761  0.282  -0.3004  -0.4797  -0.04258  0.00194  0.08887  0.7021
4.028e+09  0.1388  0.4164  -0.6194  0.05377  0.01046  0.03813  0.6484  0.2586
4.032e+09  0.4335  0.1281  -0.1092  0.562  0.05127  -0.01502  0.5535  -0.382
4.036e+09  0.207  -0.3322  0.3723  0.3147  -0.01914  -0.04815  -0.1764  -0.5516
4.04e+09  -0.2376  -0.3978  0.5047  -0.1254  -0.024  0.003018  -0.6275  -0.06464
4.044e+09  -0.4178  0.01864  0.125  -0.4741  0.02733  -0.01423  -0.4279  0.3486
4.048e+09  -0.1828  0.405  -0.5737  -0.3584  -0.02234  -0.01458  0.179  0.6274
4.052e+09  0.2133  0.392  -0.5009  0.264  -0.03642  0.04263  0.62  0.1182
4.056e+09  0.3943  -0.06753  0.007384  0.562  0.02036  -0.01467  0.2306  -0.5236
4.06e+09  0.09265  -0.3423  0.4689  0.172  -0.03835  0.000629  -0.3231  -0.4713
4.064e+09  -0.2663  -0.2902  0.3833  -0.3288  -0.05125  0.05631  -0.5987  0.1368
4.068e+09  -0.2561  0.1025  -0.1468  -0.5458  0.04353  -0.03343  -0.1692  0.4303
4.072e+09  0.04436  0.3717  -0.4481  -0.1336  0.03937  -0.02764  0.4542  0.4459
4.076e+09  0.3765  0.2106  -0.2671  0.5356  0.04551  0.06425  0.5732  -0.2115
4.08e+09  0.2792  -0.2278  0.3757  0.3508  0.07312  -0.00883  0.05302  -0.4515
4.084e+09  0.03232  -0.2745  0.6095  -0.1211  -0.04956  -0.05955  -0.5161  -0.2601
4.088e+09  -0.3697  -0.1374  0.1964  -0.476  -0.04925  -0.02968  -0.4216  0.1572
4.092e+09  -0.2777  0.299  -0.4731  -0.3808  0.0728  0.004157  0.0258  0.6318
4.096e+09  0.1994  0.37  -0.3965  0.2523  -0.01306  0.03011  0.4306  0.2097
4.1e+09  0.2867  0.06096  0.04197  0.4615  0.08016  -0.01504  0.2135  -0.3735
4.104e+09  0.1544  -0.2418  0.5075  0.2424  -0.03225  -0.0348  -0.1152  -0.3922
4.108e+09  -0.1812  -0.3221  0.3807  -0.3886  -0.01567  -0.02112  -0.4699  0.005546
4.112e+09  -0.248  0.05901  -0.06612  -0.6278  -0.0139  0.0243  -0.2274  0.4852
4.116e+09  -0.1085  0.251  -0.5298  -0.1566  -0.02005  -0.07182  0.2991  0.3026
4.12e+09  0.1655  0.2194  -0.3395  0.4653  -0.03367  0.03658  0.3477  -0.1746
4.124e+09  0.2059  -0.1805  0.2687  0.4594  0.0364  -0.02681  0.1326  -0.3516
4.128e+09  -0.01539  -0.2501  0.4957  0.02739  0.02191  0.01845  -0.3005  -0.3073
4.132e+09  -0.1919  -0.2209  0.1775  -0.4946  0.0293  0.0282  -0.2687  0.1819
4.136e+09  -0.2362  0.1081  -0.2497  -0.3608  -0.0819  -0.01592  0.04265  0.4498
4.14e+09  0.01807  0.2719  -0.5222  0.1367  0.0008298  0.01697  0.422  0.1137
4.144e+09  0.2233  0.1239  -0.1269  0.5568  0.02227  0.007442  0.2614  -0.2678
4.148e+09  0.2047  -0.1887  0.4444  0.2621  0.001083  0.05191  -0.1521  -0.3507
4.152e+09  -0.04809  -0.311  0.4574  -0.2064  -0.01354  0.05529  -0.528  -0.03133
4.156e+09  -0.288  -0.04934  -0.05464  -0.5979  -0.007757  0.02196  -0.1298  0.4083
4.16e+09  -0.1452  0.2518  -0.4596  -0.05816  0.03152  0.06033  0.2967  0.3475
4.164e+09  0.1403  0.259  -0.367  0.259  -0.02255  0.03709  0.3661  -0.1369
4.168e+09  0.2718  -0.0387  0.1175  0.4956  0.02651  0.03398  0.1542  -0.4866
4.172e+09  0.1611  -0.2556  0.391  0.06404  -0.002772  -0.08796  -0.3625  -0.3094
4.176e+09  -0.1446  -0.1983  0.2298  -0.4637  -0.0166  -0.01498  -0.5847  0.1838
4.18e+09  -0.2279  0.01233  -0.2255  -0.369  -0.0253  -0.03604  -0.06799  0.5357
4.184e+09  -0.07536  0.2869  -0.4723  0.04232  -0.06381  -0.007549  0.3919  0.2531
4.188e+09  0.2136  0.1325  -0.2049  0.5705  -0.05577  -0.002811  0.4503  -0.2943
4.192e+09  0.2564  -0.1327  0.2713  0.3991  -0.01648  0.0263  -0.1531  -0.5368
4.196e+09  -0.01116  -0.1927  0.4215  -0.08142  0.02837  0.008161  -0.5323  -0.1722
4.2e+09  -0.1638  -0.1855  0.007576  -0.3008  -0.008269  -0.0007919  -0.4284  0.4924
4.204e+09  -0.2377  0.1198  -0.3235  -0.3444  -0.04649  -0.0001322  0.105  0.548
4.208e+09  0.07079  0.2865  -0.4396  0.3082  -0.0477  -0.03923  0.4298  0.05595
4.212e+09  0.2848  0.08508  0.0007777  0.4162  0.0312  -0.005492  0.2775  -0.5685
4.216e+09  0.2579  -0.196  0.3941  0.1741  0.03941  -0.004409  -0.1521  -0.5267
4.22e+09  -0.1415  -0.2802  0.3687  -0.3417  -0.0113  -0.03091  -0.6004  0.05847
4.224e+09  -0.2619  -0.04874  -0.1439  -0.5359  0.002356  0.07315  -0.2826  0.4603
4.228e+09  -0.1254  0.2059  -0.4702  -0.05268  -0.02204  -0.0245  0.266  0.4099
4.232e+09  0.1681  0.2267  -0.31  0.4472  0.02568  7.351e-05  0.5003  -0.05436
4.236e+09  0.2988  -0.03702  0.1964  0.4578  -0.005511  -0.008062  0.1128  -0.5383
4.24e+09  0.1097  -0.355  0.4961  0.01373  0.04934  -0.0361  -0.269  -0.4123
4.244e+09  -0.2251  -0.2219  0.05249  -0.3761  -0.03833  -0.06216  -0.5047  0.07654
4.248e+09  -0.3426  0.0991  -0.2901  -0.2503  0.04436  0.005138  -0.07744  0.4794
4.252e+09  -0.07484  0.3198  -0.4791  0.1408  -0.0198  0.03151  0.511  0.3327
4.256e+09  0.2689  0.1285  -0.01769  0.4808  0.04896  0.03997  0.5745  -0.2816
4.26e+09  0.2589  -0.1241  0.4027  0.3177  0.02616  0.02493  0.02436  -0.5735
4.264e+09  0.037  -0.2181  0.3896  -0.2004  0.03  0.04201  -0.6112  -0.3231
4.268e+09  -0.2334  -0.1242  -0.02176  -0.4078  -0.06468  0.03958  -0.4252  0.4054
4.272e+09  -0.2799  0.1771  -0.4155  -0.1803  -0.03251  -0.05852  0.1238  0.5608
4.276e+09  0.02297  0.3321  -0.2162  0.2447  0.01604  -0.03408  0.6312  0.1667
4.28e+09  0.3431  0.1183  0.1363  0.4041  0.0384  0.01958  0.3926  -0.4408
4.284e+09  0.1927  -0.2057  0.4472  0.1056  0.004283  -0.01068  -0.1535  -0.5617
4.288e+09  -0.101  -0.2892  0.2789  -0.3281  -0.01391  0.01037  -0.6334  -0.08409
4.292e+09  -0.2924  -0.05809  -0.3217  -0.4396  0.02237  0.05516  -0.3291  0.5272
4.296e+09  -0.1494  0.186  -0.4007  -0.01958  -0.06575  0.03101  0.2755  0.4866
4.3e+09  0.03684  0.2278  -0.1457  0.3695  -0.00224  -0.02561  0.5179  -0.06914
4.304e+09  0.2534  -0.0244  0.1653  0.2062  -0.04771  0.03639  0.156  -0.4468
4.308e+09  0.1737  -0.2578  0.3631  -0.117  -0.07525  -0.04163  -0.322  -0.3988
4.312e+09  -0.1954  -0.1945  0.06121  -0.3741  -0.0382  -0.008479  -0.4789  0.08136
4.316e+09  -0.2664  0.07975  -0.2889  -0.2279  -0.07172  -0.01836  -0.09765  0.4584
4.32e+09  -0.08571  0.2892  -0.319  0.31  0.00694  0.00851  0.4533  0.3083
4.324e+09  0.1577  0.1913  0.1297  0.4229  0.04039  -0.0146  0.4632  -0.1524
4.328e+09  0.2458  -0.01042  0.5629  0.1463  0.01714  -0.03387  0.1015  -0.5265
4.332e+09  0.08426  -0.2429  0.3852  -0.3695  0.007391  0.03282  -0.2995  -0.2876
4.336e+09  -0.2599  -0.2128  -0.2968  -0.5044  -0.0411  -0.03056  -0.416  0.2757
4.34e+09  -0.2632  0.07446  -0.3941  0.01515  4.791e-05  -0.01902  0.1059  0.492
4.344e+09  0.002176  0.2392  -0.1289  0.4351  -0.01582  -0.03057  0.4699  0.07354
4.348e+09  0.1829  0.1459  0.2408  0.3004  0.01527  0.01938  0.3655  -0.2808
4.352e+09  0.245  -0.0972  0.4822  -0.08249  0.03726  0.01258  -0.1484  -0.4224
4.356e+09  0.003848  -0.3131  0.1175  -0.4043  -0.04907  -0.02945  -0.3444  -0.07131
4.36e+09  -0.2565  -0.08274  -0.3579  -0.2678  0.05958  0.01548  -0.2163  0.2759
4.364e+09  -0.1852  0.1868  -0.4076  0.1353  0.04269  -0.02103  0.2664  0.3346
4.368e+09  0.06263  0.2105  -0.08907  0.4237  -0.04496  -0.02054  0.3265  0.037
4.372e+09  0.251  0.02643  0.4183  0.1795  0.04945  -0.001639  0.1175  -0.3008
4.376e+09  0.2285  -0.1438  0.2958  -0.3058  0.02543  0.0287  -0.2304  -0.2461
4.38e+09  -0.09933  -0.243  -0.1463  -0.3481  -0.008468  -0.0579  -0.2906  0.1208
4.384e+09  -0.3146  -0.0165  -0.411  -0.08183  0.01222  0.01209  -0.06512  0.327
4.388e+09  -0.1426  0.2174  -0.1773  0.2703  -0.02441  0.0426  0.2632  0.09196
4.392e+09  0.1085  0.2314  0.2057  0.3813  0.02079  -0.01469  0.2299  -0.151
4.396e+09  0.2002  -0.007362  0.4935  0.06963  0.01716  -0.001076  -0.09546  -0.2385
4.4e+09  -0.02995  -0.2128  0.1874  -0.4238  0.003712  -0.1382  -0.1133  -0.03933
4.404e+09  -0.2131  -0.1309  -0.2552  -0.2749  0.07598  0.05219  -0.2264  0.2766
4.408e+09  -0.2203  0.04436  -0.3601  0.1121  0.08769  -0.002991  0.1451  0.3286
4.412e+09  -0.02267  0.2454  -0.01415  0.4082  0.0209  0.001198  0.3147  0.01456
4.416e+09  0.2169  0.08927  0.2951  0.1884  0.01563  0.006317  0.05181  -0.3316
4.42e+09  0.161  -0.08405  0.2923  -0.2855  0.00447  -0.0008602  -0.2213  -0.2553
4.424e+09  0.007809  -0.1694  -0.1441  -0.4502  0.03144  0.003702  -0.3043  0.1485
4.428e+09  -0.127  -0.1051  -0.2892  -0.1742  0.0163  0.03328  0.03935  0.3093
4.432e+09  -0.1573  0.1023  -0.2874  0.1868  0.05923  -0.07807  0.2952  0.2052
4.436e+09  0.05273  0.1217  0.1287  0.3975  -0.005602  0.009381  0.2788  -0.2082
4.44e+09  0.1769  0.08358  0.3352  0.07276  -0.04033  -0.00723  -0.01221  -0.3595
4.444e+09  0.1441  -0.1121  0.2756  -0.3509  -0.002091  -0.003667  -0.2332  -0.01783
4.448e+09  -0.07595  -0.1913  -0.1646  -0.3377  0.03427  -0.00193  -0.2769  0.2025
4.452e+09  -0.2024  -0.02065  -0.4031  -0.01601  0.009541  -0.03088  0.055  0.3487
4.456e+09  -0.08066  0.2094  -0.1791  0.4472  0.01671  0.05249  0.3986  0.03864
4.46e+09  0.1353  0.1395  0.283  0.3169  0.07948  -0.007203  0.2225  -0.2713
4.464e+09  0.1422  -0.078  0.3884  -0.1383  0.02364  -0.06895  -0.08239  -0.3031
4.468e+09  0.04904  -0.1851  0.08577  -0.3347  -0.01399  0.0147  -0.3484  -0.03878
4.472e+09  -0.08124  -0.1285  -0.2575  -0.2643  -0.03097  -0.05321  -0.2316  0.33
4.476e+09  -0.1199  0.1073  -0.3861  0.2041  0.07363  0.05532  0.2069  0.3119
4.48e+09  -0.01405  0.1918  -0.04311  0.3781  -0.0408  -0.004548  0.3906  -0.08105
4.484e+09  0.09475  0.1445  0.3487  0.07881  -0.04546  -0.05754  0.1361  -0.2617
4.488e+09  0.156  -0.1225  0.2693  -0.3047  0.0007312  0.04821  -0.2923  -0.2414
4.492e+09  -0.1053  -0.2059  -0.1851  -0.3648  0.01289  0.02587  -0.3618  0.1589
4.496e+09  -0.2121  -0.02081  -0.321  -0.04311  -0.008893  -0.01589  0.03815  0.3844
4.5e+09  -0.1173  0.04752  -0.147  0.6143  -0.02193  -0.04111  0.2995  0.4273
4.504e+09  0.07412  0.1241  0.2367  0.245  -0.01715  0.02181  0.2849  -0.1974
4.508e+09  0.1746  -0.01553  0.3972  -0.1029  0.02633  0.01595  -0.0456  -0.3556
4.512e+09  0.05553  -0.147  0.07371  -0.3602  0.01263  -0.0303  -0.2976  -0.06753
4.516e+09  -0.1073  -0.1521  -0.2636  -0.3077  -0.009471  -0.04125  -0.2747  0.2375
4.52e+09  -0.1424  0.0901  -0.338  0.09298  0.03656  0.04516  0.1484  0.3864
4.524e+09  -0.1199  0.1187  -0.01968  0.3023  0.07156  0.01051  0.3394  0.08709
4.528e+09  0.128  0.09398  0.2174  0.1556  0.01491  -0.03936  0.2123  -0.2291
4.532e+09  0.1227  -0.109  0.2791  -0.1454  -0.007086  -0.02436  -0.2187  -0.3387
4.536e+09  0.03447  -0.227  -0.05118  -0.2955  -0.04246  -0.01666  -0.3616  -0.01467
4.54e+09  -0.1619  -0.09893  -0.2172  -0.09373  0.03491  0.02644  -0.1672  0.3737
4.544e+09  -0.1918  0.112  -0.1483  0.3471  0.04907  -0.001824  0.2065  0.3577
4.548e+09  0.05673  0.1792  0.128  0.2908  0.001605  0.01002  0.4453  -0.1293
4.552e+09  0.142  0.03014  0.3032  -0.04846  0.03755  -0.004236  0.1844  -0.3818
4.556e+09  0.142  -0.1501  0.101  -0.2137  -0.03796  -0.02855  -0.3455  -0.306
4.56e+09  -0.04303  -0.1419  -0.3182  -0.3267  -0.0322  -0.08735  -0.3932  0.119
4.564e+09  -0.2026  -0.04793  -0.3812  -0.005736  -0.0435  0.001988  -0.02961  0.3035
4.568e+09  -0.05778  0.1748  -0.1267  0.3146  0.01146  -0.002715  0.2221  0.1681
4.572e+09  0.06593  0.156  0.15  0.2841  0.04299  -0.03144  0.3461  -0.09169
4.576e+09  0.188  0.1058  0.2702  -0.04534  0.008368  0.02935  0.02727  -0.2928
4.58e+09  0.141  -0.1244  0.07956  -0.3127  -0.0191  0.04304  -0.2318  -0.1916
4.584e+09  -0.09809  -0.2078  -0.2022  -0.1267  -0.01797  -0.004421  -0.2287  0.2072
4.588e+09  -0.2024  -0.05176  -0.198  0.2809  -0.01241  0.005307  0.09938  0.283
4.592e+09  -0.1399  0.1634  0.04281  0.29  -0.001862  0.05711  0.3478  0.1075
4.596e+09  0.08211  0.2548  0.3046  0.08344  -0.000606  0.04443  0.2381  -0.1759
4.6e+09  0.1882  -0.01751  0.2397  -0.2862  0.003733  -0.00144  -0.1027  -0.3615
4.604e+09  0.08627  -0.1943  -0.1698  -0.2737  0.0042  -0.04808  -0.3155  -0.004217
4.608e+09  -0.1021  -0.1824  -0.3413  -0.113  -0.00129  0.008782  -0.1359  0.222
4.612e+09  -0.1801  0.02322  -0.2113  0.3033  -0.03393  0.02602  0.1509  0.1608
4.616e+09  -0.07646  0.1917  0.0821  0.3268  -0.02418  -0.03981  0.3254  0.0851
4.62e+09  0.1562  0.159  0.295  0.01834  -0.03259  -0.07626  0.1331  -0.1629
4.624e+09  0.2328  -0.0494  0.1478  -0.1956  0.006428  0.0006029  -0.1027  -0.1754
4.628e+09  0.0614  -0.2231  -0.2263  -0.136  -0.05297  0.007678  -0.2265  0.01949
4.632e+09  -0.1154  -0.1473  -0.2283  0.1233  -0.04206  -0.01629  -0.1062  0.2779
4.636e+09  -0.1477  -0.01018  0.03258  0.2884  0.002573  0.01397  0.2183  0.1331
4.64e+09  -0.103  0.2502  0.3008  0.09881  0.05468  -0.04357  0.2559  -0.1447
4.644e+09  0.2221  0.1179  0.2621  -0.1997  0.03873  0.006913  -0.01712  -0.2679
4.648e+09  0.1798  -0.08664  -0.03556  -0.3602  0.03831  0.01417  -0.1691  -0.1477
4.652e+09  -0.01286  -0.1584  -0.2955  -0.03434  -0.01156  0.00708  -0.2039  0.1594
4.656e+09  -0.2107  -0.08001  -0.1957  0.2388  0.01654  -0.01205  -0.06659  0.2278
4.66e+09  -0.1633  0.05799  -0.004939  0.2935  0.01129  -0.02546  0.2195  0.05482
4.664e+09  0.0387  0.1794  0.2961  -0.01236  0.0277  0.03097  0.1806  -0.2104
4.668e+09  0.1984  0.09978  0.1229  -0.274  0.01537  0.05726  -0.1666  -0.1879
4.672e+09  0.183  -0.1062  -0.1229  -0.2388  0.01281  0.001073  -0.2096  -0.08013
4.676e+09  0.04023  -0.1893  -0.3056  -0.01635  -0.0006398  0.03677  -0.02929  0.1401
4.68e+09  -0.2337  -0.08209  -0.112  0.3262  0.03892  0.05727  0.05538  0.2744
4.684e+09  -0.1585  0.1312  0.1755  0.1903  0.03941  0.0845  0.1627  -0.02716
4.688e+09  0.06563  0.1736  0.2661  -0.07885  0.004937  0.009693  0.01548  -0.1887
4.692e+09  0.1359  0.07263  0.09757  -0.353  -0.014  -0.04197  -0.1521  -0.2164
4.696e+09  0.153  -0.1514  -0.3691  -0.1816  -0.02142  -0.02702  -0.215  0.07034
4.7e+09  -0.05604  -0.1391  -0.2836  0.1986  0.003311  -0.01381  0.02005  0.1364
4.704e+09  -0.1657  -0.09561  0.02975  0.3065  -0.06132  -0.008351  0.1415  0.1132
4.708e+09  -0.1306  0.1214  0.249  0.2446  0.006975  0.04488  0.2012  -0.05074
4.712e+09  0.05612  0.09249  0.3347  -0.2105  0.03048  0.03428  0.01455  -0.1982
4.716e+09  0.2036  -0.0209  -0.1425  -0.2854  0.01766  0.001221  -0.1393  -0.06811
4.72e+09  0.03629  -0.07901  -0.2844  -0.05941  0.03252  -0.02842  -0.1058  0.1179
4.724e+09  -0.08673  -0.1322  -0.1516  0.3202  0.02982  0.04879  -0.004291  0.1789
4.728e+09  -0.06179  0.03176  0.1477  0.2487  -0.03599  0.02573  0.1666  0.002807
4.732e+09  -0.04762  0.07943  0.242  0.03847  0.003202  -0.03903  0.1368  -0.1811
4.736e+09  0.09843  0.1244  0.1158  -0.2658  -0.02611  -0.02057  -0.1252  -0.1681
4.74e+09  0.1028  -0.04029  -0.135  -0.2373  0.09225  -0.0301  -0.1756  0.008705
4.744e+09  -0.04151  -0.078  -0.2415  0.1137  0.05291  0.02004  -0.04318  0.1838
4.748e+09  -0.0409  -0.09093  -0.02556  0.2977  0.004124  -0.0371  0.1172  0.142
4.752e+09  -0.1265  0.03041  0.3317  0.166  0.03708  0.03603  0.1134  -0.06734
4.756e+09  0.001913  0.04272  0.2553  -0.0893  -0.01312  0.01096  -0.04102  -0.1872
4.76e+09  0.09383  0.01201  -0.005817  -0.2597  -0.06371  0.0317  -0.05322  -0.02779
4.764e+09  0.09503  -0.07507  -0.2509  -0.1152  0.02145  -0.07104  -0.1567  0.08034
4.768e+09  -0.07841  -0.0809  -0.1822  0.1607  -0.02243  0.02004  -0.003878  0.104
4.772e+09  -0.1095  -0.02602  0.1008  0.278  -0.02443  -0.03707  0.1679  0.01109
4.776e+09  -0.03809  0.06934  0.2618  0.05343  0.01441  -0.009592  0.139  -0.1357
4.78e+09  0.02128  0.04617  0.0985  -0.2007  0.03478  -0.000586  -0.07719  -0.2036
4.784e+09  0.1155  -0.01928  -0.105  -0.2337  -0.002362  0.01509  -0.2449  -0.05926
4.788e+09  0.05144  -0.0683  -0.2224  -0.04953  -0.01493  -0.04883  -0.1742  0.1043
4.792e+09  -0.05281  0.001847  -0.0657  0.2321  -0.004598  0.03583  0.04252  0.1944
4.796e+09  -0.0745  -0.01498  0.2444  0.2134  0.01013  0.04915  0.1697  0.03981
4.8e+09  0.01224  0.04198  0.2585  -0.1283  -0.01084  -0.01653  0.08088  -0.1934
4.804e+09  0.03181  -0.006372  0.02503  -0.3153  0.01384  -0.05457  -0.1165  -0.1374
4.808e+09  0.005634  -0.01761  -0.1752  -0.1373  -0.09186  -0.01338  -0.1813  -0.03679
4.812e+09  -0.02755  -0.04417  -0.1672  0.1462  -0.0337  0.02728  -0.0443  0.1335
4.816e+09  -0.05732  -0.08209  0.0382  0.2415  0.004936  0.01162  0.084  0.135
4.82e+09  0.009749  0.1111  0.2811  0.1195  -0.004576  0.0296  0.1573  -0.0005995
4.824e+09  0.06459  0.05535  0.1966  -0.2093  0.02093  -0.07007  0.1071  -0.2067
4.828e+09  0.1118  0.01087  -0.1184  -0.1916  0.02149  0.01275  -0.1196  -0.06029
4.832e+09  0.06707  -0.08005  -0.2877  -0.001007  0.03756  -0.0411  -0.1165  0.01809
4.836e+09  -0.03407  -0.004002  -0.07833  0.2576  0.01017  -0.02818  0.04789  0.1393
4.84e+09  -0.07095  0.06306  0.1819  0.1912  -0.02256  -0.04224  0.09755  0.05231
4.844e+09  -0.0136  0.09425  0.274  0.03103  0.008849  0.01549  0.1261  -0.08802
4.848e+09  0.09427  0.03099  0.1732  -0.2927  -0.04017  0.05642  0.009819  -0.2313
4.852e+09  0.09763  -0.06216  -0.1631  -0.1594  0.03229  -0.02228  -0.1314  -0.07764
4.856e+09  -0.03329  -0.1023  -0.2351  0.02364  -0.001745  0.03508  -0.1415  0.1135
4.86e+09  -0.1279  -0.03127  -0.008299  0.162  0.02089  -0.01831  0.009797  0.0202
4.864e+09  -0.1019  0.08429  0.2144  0.2026  -0.01751  0.04053  0.06132  0.0003331
4.868e+09  0.05019  0.1159  0.1828  -0.05707  0.0624  -0.02331  0.1037  -0.08765
4.872e+09  0.1015  0.05559  -0.1098  -0.2509  0.02348  0.01591  -0.06063  -0.144
4.876e+09  0.1077  -0.1371  -0.2271  -0.1645  0.04001  -0.01325  -0.1851  -0.03898
4.88e+09  -0.1068  -0.09621  -0.1885  0.2084  -0.03608  -0.06986  -0.04462  0.1512
4.884e+09  -0.2059  -0.05494  0.1094  0.2592  0.001434  -0.005574  0.0215  0.09066
4.888e+09  -0.06283  0.1166  0.2543  0.0286  0.05401  0.06165  0.09292  -0.04888
4.892e+09  0.05221  0.1594  0.09141  -0.2445  -0.001937  0.03232  0.03426  -0.04293
4.896e+09  0.1748  0.01725  -0.0939  -0.238  -0.008567  0.03132  -0.07872  -0.0771
4.9e+09  0.07979  -0.1221  -0.2316  0.03749  -0.003786  -0.02051  -0.1084  0.0608
4.904e+09  -0.0896  -0.1777  -0.09375  0.238  0.02314  0.01392  -0.0009112  0.04896
4.908e+09  -0.2028  0.007625  0.1575  0.2201  0.03788  -0.00228  0.06613  0.03162
4.912e+09  -0.06186  0.1806  0.2429  -0.02414  -0.06764  0.02731  0.06512  -0.09692
4.916e+09  0.1215  0.1362  0.03555  -0.1982  0.02869  0.01847  -0.03399  -0.05573
4.92e+09  0.1649  -0.03235  -0.1751  -0.1705  0.02062  -0.04208  -0.06934  -0.0201
4.924e+09  0.05318  -0.1964  -0.2724  0.1711  -0.004012  0.02242  -0.02646  0.08065
4.928e+09  -0.1284  -0.1557  -0.009626  0.246  -0.00612  0.004991  0.05687  0.1031
4.932e+09  -0.1691  0.0425  0.3164  0.1014  0.01277  -0.007543  0.1762  0.03201
4.936e+09  -0.02107  0.08172  0.1909  -0.1603  -0.02683  0.05086  0.02686  0.003614
4.94e+09  0.131  0.1287  -0.08389  -0.2889  -0.01061  0.04597  -0.007856  -0.01177
4.944e+09  0.2108  -0.008013  -0.3103  -0.01021  0.01479  0.0113  -0.09829  0.02496
4.948e+09  0.02235  -0.196  -0.08264  0.1701  -0.02041  -0.04216  -0.0458  0.09393
4.952e+09  -0.1236  -0.08362  0.2092  0.182  0.005542  -0.03799  0.08213  -0.02364
4.956e+09  -0.1289  0.1128  0.2626  -0.05248  -0.01163  0.06331  0.0811  0.02185
4.96e+09  -0.01704  0.2024  0.06108  -0.2312  -0.01522  0.07653  0.03399  -0.07952
4.964e+09  0.09334  0.1388  -0.2112  -0.1912  -0.01467  -0.002377  -0.106  -0.04464
4.968e+09  0.0821  -0.05025  -0.2557  0.09078  -0.02437  -0.03388  -0.07719  0.02768
4.972e+09  0.02098  -0.1859  -0.01962  0.2897  0.03614  -0.02631  0.05335  0.1199
4.976e+09  -0.1164  -0.0797  0.1869  0.1012  -0.009545  -0.02337  0.05424  0.1061
4.98e+09  -0.09733  0.06268  0.1813  -0.08016  0.02271  -0.01167  0.06841  -0.06516
