# Hz S RI R 50
4e+09  -0.4502  0.9599  -3.392  0.4709  0.1754  0.5832  -1.762  3.459
4.004e+09  -0.04959  0.4582  -0.6119  -0.1231  -0.3759  0.2781  0.1828  0.6138
4.008e+09  0.3076  0.2069  -0.3613  0.3288  -0.01655  0.3714  0.7093  0.09779
4.012e+09  0.3543  -0.2003  0.1997  0.4687  0.4013  0.07674  0.3407  -0.5012
4.016e+09  -0.0811  -0.3474  0.535  0.04411  0.2799  -0.3398  -0.243  -0.6152
4.02e+09  -0.3616  -0.128  0.2156  -0.365  -0.1834  -0.3624  -0.6322  -0.09107
4.024e+09  -0.2846  0.2704  -0.232  -0.3459  -0.4798  -0.0254  -0.3214  0.4954
4.028e+09  0.0962  0.2945  -0.5146  0.05844  -0.2814  0.3685  0.2555  0.581
4.032e+09  0.3304  0.1215  -0.2642  0.3951  0.229  0.3378  0.4605  0.1047
4.036e+09  0.2259  -0.3302  0.3437  0.3698  0.4015  -0.04079  0.2695  -0.5173
4.04e+09  -0.1111  -0.3678  0.4588  -0.2407  0.1194  -0.3996  -0.3843  -0.4644
4.044e+09  -0.4041  -0.004804  0.1033  -0.5946  -0.322  -0.2394  -0.4818  0.1495
4.048e+09  -0.1706  0.2812  -0.3697  -0.3484  -0.3621  0.1628  -0.1093  0.627
4.052e+09  0.2185  0.2453  -0.3889  0.2382  -0.01391  0.3986  0.339  0.3856
4.056e+09  0.3658  -0.07312  0.01513  0.4743  0.2822  0.1928  0.4588  -0.1456
4.06e+09  0.1473  -0.2994  0.5104  0.2043  0.3338  -0.2618  0.04174  -0.6029
4.064e+09  -0.2429  -0.185  0.2356  -0.4135  0.01279  -0.4683  -0.3626  -0.2059
4.068e+09  -0.3252  0.1773  -0.2388  -0.4824  -0.3623  -0.132  -0.3936  0.2522
4.072e+09  -0.01776  0.3739  -0.4885  -0.1251  -0.2836  0.2624  0.05355  0.5087
4.076e+09  0.3204  0.2538  -0.216  0.4562  0.03685  0.3772  0.3663  0.2358
4.08e+09  0.2447  -0.1609  0.2424  0.3361  0.3935  0.08491  0.4922  -0.2926
4.084e+09  -0.143  -0.2834  0.5945  -0.08274  0.1874  -0.2904  -0.06963  -0.4788
4.088e+09  -0.3378  -0.1487  0.07689  -0.5027  -0.1685  -0.3258  -0.4126  -0.1071
4.092e+09  -0.2299  0.2602  -0.3972  -0.341  -0.3792  -0.04251  -0.2551  0.2936
4.096e+09  0.1062  0.2936  -0.5387  0.1409  -0.1922  0.3822  0.05329  0.3644
4.1e+09  0.3575  0.08687  -0.03633  0.5588  0.2564  0.3573  0.4494  0.1143
4.104e+09  0.1963  -0.2141  0.5049  0.2644  0.4415  -0.1243  0.2372  -0.3014
4.108e+09  -0.1786  -0.2668  0.4814  -0.2967  0.06162  -0.4001  -0.1789  -0.3936
4.112e+09  -0.3237  0.05065  -0.05016  -0.612  -0.343  -0.2043  -0.337  0.008297
4.116e+09  -0.1271  0.3527  -0.4742  -0.1067  -0.3762  0.1455  -0.1375  0.313
4.12e+09  0.1757  0.2252  -0.3688  0.3958  0.05675  0.4116  0.2258  0.3073
4.124e+09  0.2505  -0.08373  0.3404  0.4922  0.3698  0.1629  0.3755  -0.08437
4.128e+09  0.0285  -0.2506  0.5499  0.02941  0.2454  -0.3114  0.08094  -0.4372
4.132e+09  -0.1731  -0.2119  0.3064  -0.524  -0.1279  -0.3925  -0.2497  -0.1632
4.136e+09  -0.2529  0.06705  -0.3363  -0.4315  -0.305  -0.04167  -0.3148  0.2523
4.14e+09  -0.01033  0.2842  -0.4933  0.1392  -0.1863  0.3172  0.04479  0.453
4.144e+09  0.2361  0.08506  -0.1499  0.5198  0.1696  0.4085  0.4058  0.01918
4.148e+09  0.2661  -0.1431  0.4697  0.3155  0.3169  0.0218  0.2962  -0.1948
4.152e+09  -0.07538  -0.2682  0.4761  -0.2254  0.1878  -0.3435  -0.2012  -0.2791
4.156e+09  -0.1941  -0.03539  -0.07223  -0.5442  -0.3129  -0.2428  -0.2847  0.09572
4.16e+09  -0.156  0.3178  -0.4773  -0.1342  -0.4183  0.06022  -0.0157  0.3207
4.164e+09  0.1229  0.239  -0.3685  0.4041  -0.04473  0.3788  0.2471  0.2805
4.168e+09  0.2803  0.0392  0.08677  0.4382  0.2838  0.1518  0.2802  -0.1108
4.172e+09  0.01594  -0.2223  0.4774  0.04326  0.3029  -0.1428  0.03002  -0.2737
4.176e+09  -0.1832  -0.2134  0.2035  -0.4156  -0.009705  -0.3834  -0.2571  -0.1088
4.18e+09  -0.2741  0.06027  -0.2243  -0.4043  -0.3082  -0.1896  -0.1629  0.2552
4.184e+09  -0.08104  0.2809  -0.5052  -0.0126  -0.3338  0.2404  0.1563  0.3512
4.188e+09  0.1657  0.221  -0.06337  0.4818  0.02441  0.3819  0.3826  -0.08804
4.192e+09  0.2531  -0.1108  0.4292  0.3284  0.3517  0.1093  0.1313  -0.2882
4.196e+09  -0.03724  -0.2765  0.4738  -0.1604  0.131  -0.1994  -0.266  -0.3333
4.2e+09  -0.2521  -0.1171  -0.1579  -0.3489  -0.1198  -0.2584  -0.2462  0.03184
4.204e+09  -0.3334  0.1688  -0.333  -0.2314  -0.3311  -0.0754  -0.05395  0.3454
4.208e+09  0.02393  0.3199  -0.3767  0.2436  -0.1962  0.3682  0.2591  0.3457
4.212e+09  0.2734  0.116  0.08549  0.5461  0.2057  0.2655  0.424  -0.1364
4.216e+09  0.2192  -0.2024  0.4466  0.2012  0.3432  -0.01004  0.09959  -0.4141
4.22e+09  -0.07125  -0.2751  0.3157  -0.3407  0.06992  -0.3732  -0.3182  -0.2601
4.224e+09  -0.3243  -0.03857  -0.1988  -0.4838  -0.2712  -0.2334  -0.4677  0.2565
4.228e+09  -0.1853  0.2687  -0.3642  -0.04663  -0.3681  0.07997  0.03617  0.4486
4.232e+09  0.1496  0.228  -0.3451  0.3877  0.02255  0.3271  0.2969  0.1992
4.236e+09  0.2198  -0.0526  0.1754  0.4042  0.3128  0.2147  0.2237  -0.329
4.24e+09  0.1446  -0.3313  0.5444  0.08207  0.3639  -0.1234  -0.03522  -0.348
4.244e+09  -0.2397  -0.2699  0.228  -0.3996  -0.02523  -0.2556  -0.4553  -0.1469
4.248e+09  -0.3564  0.05946  -0.3812  -0.3753  -0.3002  -0.08644  -0.3871  0.3462
4.252e+09  -0.1047  0.2746  -0.4849  0.1847  -0.2528  0.2478  0.1444  0.4045
4.256e+09  0.2072  0.1801  -0.1077  0.4829  0.0256  0.364  0.385  0.03927
4.26e+09  0.2181  -0.133  0.3671  0.2077  0.3458  0.1731  0.2086  -0.3613
4.264e+09  0.01501  -0.292  0.3841  -0.2447  0.251  -0.2967  -0.1271  -0.3428
4.268e+09  -0.2142  -0.1993  0.01787  -0.4931  -0.1156  -0.3836  -0.4289  -0.02154
4.272e+09  -0.1646  0.2021  -0.409  -0.1322  -0.4195  -0.03079  -0.2504  0.4771
4.276e+09  0.05313  0.3237  -0.2659  0.3066  -0.1674  0.3535  0.1769  0.371
4.28e+09  0.2869  0.1263  0.1561  0.5075  0.2106  0.2338  0.4064  -0.05978
4.284e+09  0.2335  -0.1376  0.4652  0.03417  0.3686  -0.03779  0.1482  -0.3929
4.288e+09  -0.05698  -0.2817  0.2388  -0.3561  0.1404  -0.346  -0.2968  -0.3621
4.292e+09  -0.2741  -0.03194  -0.2418  -0.3886  -0.3768  -0.2147  -0.4892  0.1128
4.296e+09  -0.1672  0.2172  -0.449  0.07362  -0.274  0.1128  -0.1328  0.4119
4.3e+09  0.07656  0.2407  -0.127  0.4274  -0.05227  0.3541  0.3799  0.348
4.304e+09  0.2268  0.05256  0.2855  0.3316  0.2668  0.2005  0.3572  -0.1822
4.308e+09  0.08134  -0.1843  0.4665  -0.1373  0.3043  -0.2082  0.05657  -0.4725
4.312e+09  -0.2062  -0.1337  -0.03813  -0.3438  -0.1234  -0.2859  -0.4203  -0.2873
4.316e+09  -0.2118  0.01458  -0.3904  -0.1793  -0.3523  -0.07896  -0.3779  0.2912
4.32e+09  -0.07677  0.2291  -0.3317  0.3598  -0.2232  0.2625  -0.04936  0.4868
4.324e+09  0.2459  0.1927  -0.003316  0.5363  0.1539  0.2667  0.3656  0.1493
4.328e+09  0.2878  -0.04291  0.4278  0.177  0.3542  0.02349  0.3685  -0.2585
4.332e+09  -0.03105  -0.2584  0.2686  -0.4177  0.1936  -0.2546  -0.1389  -0.4631
4.336e+09  -0.25  -0.1669  -0.2241  -0.4106  -0.2409  -0.3251  -0.4676  -0.138
4.34e+09  -0.2788  0.05531  -0.5367  -0.07906  -0.4012  0.08452  -0.2976  0.3024
4.344e+09  -0.05331  0.2927  -0.1846  0.3406  -0.1243  0.3605  0.1925  0.3381
4.348e+09  0.2029  0.1916  0.3031  0.2921  0.2654  0.2506  0.3667  0.01122
4.352e+09  0.2457  -0.1375  0.3654  -0.09668  0.281  -0.1344  0.3046  -0.355
4.356e+09  0.05534  -0.2421  0.04238  -0.4787  0.04096  -0.3981  -0.215  -0.3959
4.36e+09  -0.2254  -0.1371  -0.4121  -0.2683  -0.3076  -0.1485  -0.3533  0.01083
4.364e+09  -0.1636  0.1866  -0.3098  0.1819  -0.3268  0.2291  -0.1251  0.3817
4.368e+09  0.04778  0.2048  -0.02335  0.4334  0.106  0.3029  0.2872  0.2731
4.372e+09  0.2222  0.08532  0.2674  0.2372  0.3129  0.1311  0.4095  -0.08338
4.376e+09  0.1802  -0.2372  0.227  -0.2125  0.1957  -0.2417  0.1617  -0.3626
4.38e+09  -0.1357  -0.2171  -0.003454  -0.4557  -0.171  -0.3159  -0.3226  -0.1901
4.384e+09  -0.2556  0.0003106  -0.397  -0.03187  -0.3066  -0.03265  -0.3  0.1466
4.388e+09  -0.07554  0.1732  -0.2712  0.2972  -0.1264  0.2829  -0.0922  0.4171
4.392e+09  0.1901  0.2128  0.2548  0.415  0.2127  0.3254  0.243  0.1826
4.396e+09  0.2543  -0.04048  0.4436  -0.07349  0.3467  -0.1201  0.1993  -0.2119
4.4e+09  0.1532  -0.358  0.2671  -0.3209  0.1084  -0.2096  -0.1092  -0.2977
4.404e+09  -0.1507  -0.1478  -0.3285  -0.1816  -0.1645  -0.2196  -0.3459  -0.0452
4.408e+09  -0.1744  0.1222  -0.3347  0.08871  -0.2628  0.06795  -0.1066  0.2961
4.412e+09  -0.04522  0.2154  -0.0437  0.3993  -0.02446  0.2979  0.07254  0.1264
4.416e+09  0.1788  0.08646  0.3371  0.2784  0.2541  0.199  0.3118  0.05417
4.42e+09  0.1645  -0.08753  0.2746  -0.2742  0.2929  -0.1811  0.1083  -0.3163
4.424e+09  -0.0141  -0.1755  0.01848  -0.39  -0.07469  -0.291  -0.1505  -0.1517
4.428e+09  -0.1665  -0.125  -0.3302  -0.08348  -0.3494  -0.1078  -0.2606  0.02529
4.432e+09  -0.167  0.1326  -0.3219  0.2339  -0.2151  0.2065  -0.03031  0.2507
4.436e+09  0.04595  0.1339  0.1377  0.3753  0.1557  0.2981  0.137  0.1469
4.44e+09  0.1657  -0.02272  0.411  0.06299  0.3013  0.08823  0.2118  -0.1195
4.444e+09  0.07997  -0.1501  0.2193  -0.4023  0.1559  -0.2651  0.005195  -0.2915
4.448e+09  -0.0966  -0.1582  -0.1625  -0.2717  -0.1493  -0.2059  -0.1568  -0.1579
4.452e+09  -0.177  0.001722  -0.4307  0.02392  -0.3553  0.003694  -0.1673  0.1461
4.456e+09  -0.1072  0.1642  -0.2088  0.4264  -0.1578  0.2493  0.06345  0.218
4.46e+09  0.08192  0.109  0.3492  0.252  0.2116  0.2637  0.2115  -0.06731
4.464e+09  0.1699  -0.06676  0.4684  -0.15  0.2886  -0.0203  0.1873  -0.1147
4.468e+09  -0.002906  -0.1763  0.0597  -0.3498  0.07203  -0.2723  -0.04707  -0.1493
4.472e+09  -0.1478  -0.04916  -0.3561  -0.2733  -0.1963  -0.1974  -0.264  -0.06977
4.476e+09  -0.1384  0.06871  -0.3926  0.1427  -0.2697  0.1366  -0.08693  0.1787
4.48e+09  0.00496  0.1743  0.1134  0.4168  0.003162  0.3726  0.08466  0.1268
4.484e+09  0.133  0.08531  0.2816  0.1801  0.2697  0.08908  0.2588  -0.07949
4.488e+09  0.1562  -0.07931  0.3596  -0.2908  0.2407  -0.2112  0.01901  -0.2382
4.492e+09  -0.004861  -0.1721  -0.1295  -0.3927  -0.07339  -0.3012  -0.1971  -0.1739
4.496e+09  -0.1357  0.02319  -0.3419  -0.1467  -0.2439  -0.05755  -0.2257  0.2082
4.5e+09  -0.1503  0.0776  0.002665  0.3697  -0.1873  0.313  -0.179  -0.01287
4.504e+09  0.08606  0.1615  0.1597  0.2767  0.07034  0.2475  0.2839  0.1611
4.508e+09  0.127  0.01835  0.329  0.0319  0.2919  -0.03529  0.1756  -0.1824
4.512e+09  0.02297  -0.08417  0.1589  -0.2957  0.1197  -0.2964  -0.03138  -0.3229
4.516e+09  -0.07911  -0.1119  -0.2937  -0.1822  -0.1487  -0.1592  -0.2314  -0.09123
4.52e+09  -0.1342  0.00188  -0.4485  0.1156  -0.3099  0.03817  -0.1177  0.2862
4.524e+09  -0.03903  0.1881  -0.09668  0.3084  -0.07777  0.2717  0.06028  0.2385
4.528e+09  0.1171  0.09058  0.2367  0.2826  0.202  0.1792  0.3127  0.03462
4.532e+09  0.2141  -0.09766  0.2672  -0.1469  0.2645  -0.1093  0.1325  -0.2168
4.536e+09  0.01164  -0.1756  -0.0164  -0.2777  0.01649  -0.2824  -0.1603  -0.21
4.54e+09  -0.1478  -0.1364  -0.3053  -0.03727  -0.2471  -0.1952  -0.2321  0.1001
4.544e+09  -0.1541  0.07851  -0.2188  0.1581  -0.1833  0.1759  -0.03686  0.3031
4.548e+09  0.02372  0.1582  0.09377  0.2735  0.03989  0.2067  0.2031  0.1034
4.552e+09  0.1796  0.09867  0.3267  -0.07737  0.2518  0.07709  0.3109  -0.1571
4.556e+09  0.1264  -0.1378  0.1663  -0.3014  0.2565  -0.1773  -0.04061  -0.2678
4.56e+09  -0.05278  -0.1684  -0.171  -0.3112  -0.07024  -0.2144  -0.3117  -0.1702
4.564e+09  -0.2075  -0.01322  -0.414  0.02905  -0.2386  -0.06901  -0.3023  0.119
4.568e+09  -0.1338  0.07582  -0.1582  0.3258  -0.1659  0.1965  -0.05519  0.3041
4.572e+09  0.05856  0.1664  0.1825  0.2895  0.04924  0.2474  0.299  0.1367
4.576e+09  0.1886  0.05202  0.3305  -0.002199  0.1947  0.0463  0.2387  -0.1247
4.58e+09  0.08034  -0.1761  0.04262  -0.3287  0.1007  -0.2407  0.03341  -0.2594
4.584e+09  -0.07842  -0.2141  -0.25  -0.1462  -0.1123  -0.1722  -0.3137  -0.1349
4.588e+09  -0.243  0.04557  -0.2539  0.2051  -0.2679  0.05527  -0.2163  0.2226
4.592e+09  -0.1788  0.1732  0.1243  0.3085  -0.05591  0.2494  0.1708  0.2294
4.596e+09  0.1397  0.1614  0.3033  0.01969  0.2223  0.1358  0.3138  0.008468
4.6e+09  0.241  -0.0285  0.2532  -0.296  0.2233  -0.05797  0.2524  -0.3293
4.604e+09  0.1012  -0.1645  -0.03814  -0.3381  0.02967  -0.2382  -0.09427  -0.3765
4.608e+09  -0.1131  -0.1961  -0.349  -0.1099  -0.1761  -0.1742  -0.3863  -0.08189
4.612e+09  -0.2255  0.04825  -0.1841  0.2038  -0.1811  0.2114  -0.2605  0.2827
4.616e+09  -0.06197  0.2156  0.1593  0.2489  -0.01537  0.2413  0.1004  0.3393
4.62e+09  0.1574  0.1315  0.2831  0.004584  0.2182  0.04543  0.2988  -0.01689
4.624e+09  0.183  -0.0152  0.06838  -0.1193  0.1798  -0.1863  0.1215  -0.2576
4.628e+09  0.06271  -0.2031  -0.2154  -0.1586  -0.06191  -0.2495  -0.2101  -0.2472
4.632e+09  -0.1681  -0.1813  -0.2448  0.1348  -0.2341  -0.09734  -0.2485  0.02295
4.636e+09  -0.1794  0.02049  -0.05526  0.2758  -0.1752  0.2153  -0.02172  0.2859
4.64e+09  -0.06225  0.2118  0.3298  0.03983  0.08822  0.1886  0.2623  0.1727
4.644e+09  0.1789  0.1138  0.2275  -0.2426  0.2063  -0.02109  0.2583  -0.14
4.648e+09  0.1993  -0.1116  -0.09542  -0.3754  0.1153  -0.2523  0.07471  -0.3818
4.652e+09  0.0271  -0.1822  -0.3005  -0.04253  -0.1441  -0.1913  -0.23  -0.1609
4.656e+09  -0.1656  -0.1588  -0.2449  0.1557  -0.2715  0.02038  -0.254  0.1429
4.66e+09  -0.1294  0.09744  0.05212  0.2914  -0.04028  0.2328  0.05131  0.2621
4.664e+09  -0.01245  0.2581  0.2347  0.02363  0.19  0.1736  0.232  0.1612
4.668e+09  0.1344  0.01768  0.1915  -0.1683  0.1515  -0.1004  0.249  -0.1005
4.672e+09  0.1577  -0.09356  -0.1953  -0.2012  -0.02864  -0.2643  -0.09342  -0.1792
4.676e+09  -0.01317  -0.1407  -0.376  0.005027  -0.1836  -0.1756  -0.258  -0.1091
4.68e+09  -0.1801  -0.0302  -0.0535  0.2489  -0.2244  0.1335  -0.1809  0.2404
4.684e+09  -0.1418  0.1029  0.2467  0.1396  0.01734  0.255  0.1237  0.2717
4.688e+09  0.07551  0.1977  0.2552  -0.131  0.1789  0.0229  0.3037  -0.008752
4.692e+09  0.1752  0.08794  0.01565  -0.3527  0.1412  -0.188  0.1669  -0.2901
4.696e+09  0.1331  -0.06856  -0.3161  -0.1424  -0.0894  -0.2002  -0.2383  -0.2715
4.7e+09  -0.09326  -0.1583  -0.2893  0.1321  -0.2676  0.05069  -0.352  0.0003904
4.704e+09  -0.1488  -0.0387  -0.01613  0.3834  -0.1464  0.2378  -0.04133  0.1928
4.708e+09  -0.07334  0.1113  0.3023  0.07008  0.1209  0.1696  0.2095  0.1082
4.712e+09  0.08724  0.199  0.2144  -0.2319  0.243  -0.08085  0.1908  -0.03142
4.716e+09  0.1368  -0.0007813  -0.08158  -0.2469  0.1229  -0.211  0.04199  -0.2484
4.72e+09  0.04438  -0.1148  -0.3398  0.01413  -0.1494  -0.2172  -0.1949  -0.1286
4.724e+09  -0.1515  -0.07803  -0.1462  0.2358  -0.2435  0.07425  -0.2685  0.1132
4.728e+09  -0.1671  -0.03772  0.1412  0.2899  -0.03668  0.2756  -0.01056  0.1794
4.732e+09  -0.02029  0.125  0.291  -0.09263  0.1926  0.1649  0.2627  -0.004888
4.736e+09  0.09356  0.0107  0.06087  -0.2429  0.2077  -0.08253  0.1591  -0.1567
4.74e+09  0.1473  0.005203  -0.1992  -0.1997  -0.03828  -0.2331  -0.1096  -0.2738
4.744e+09  -0.04523  -0.1021  -0.2635  0.1407  -0.1874  -0.04018  -0.2203  -0.06731
4.748e+09  -0.03823  -0.06161  -0.0738  0.2944  -0.1833  0.1581  -0.1918  0.2047
4.752e+09  -0.0653  0.1441  0.2783  0.1257  0.06487  0.207  0.1363  0.1731
4.756e+09  0.0438  0.0798  0.1226  -0.1449  0.2634  0.0906  0.1907  0.02582
4.76e+09  0.06225  0.05255  -0.01143  -0.2071  0.1627  -0.2483  0.0744  -0.2788
4.764e+09  0.07467  -0.0379  -0.2698  -0.0772  -0.0839  -0.1947  -0.1856  -0.1647
4.768e+09  -0.1187  -0.09068  -0.2066  0.08752  -0.3111  0.01028  -0.2725  -0.01215
4.772e+09  -0.01026  0.01932  0.1288  0.1963  -0.1237  0.1772  -0.02569  0.147
4.776e+09  -0.01996  0.09744  0.2397  -0.03128  0.09449  0.1248  0.1346  0.1529
4.78e+09  0.06034  0.07  0.059  -0.306  0.2283  -0.05444  0.2308  -0.08349
4.784e+09  0.04113  -0.03369  -0.06965  -0.2021  0.01857  -0.1664  0.04287  -0.2332
4.788e+09  -0.01832  -0.05265  -0.3238  0.02145  -0.1371  -0.1239  -0.1686  -0.1195
4.792e+09  -0.02776  -0.05933  -0.1073  0.2389  -0.2085  0.1061  -0.1949  0.1345
4.796e+09  -0.06082  0.01007  0.2135  0.09203  -0.04998  0.2254  -0.02908  0.1901
4.8e+09  0.06424  0.08088  0.2756  -0.04935  0.1298  0.06345  0.2439  0.02679
4.804e+09  0.07233  0.003841  0.0839  -0.2348  0.1911  -0.1378  0.1102  -0.1669
4.808e+09  0.05129  -0.009044  -0.1912  -0.1291  -0.02469  -0.2161  -0.0664  -0.2173
4.812e+09  -0.01053  -0.001671  -0.2106  0.188  -0.1814  -0.08569  -0.1915  0.02132
4.816e+09  -0.02971  0.0325  0.0862  0.2416  -0.1435  0.1381  -0.09622  0.1843
4.82e+09  -0.08555  0.05376  0.3028  0.07579  0.08176  0.1831  0.156  0.1564
4.824e+09  0.01114  0.09917  0.07747  -0.1926  0.1816  0.04838  0.1854  -0.03213
4.828e+09  0.1215  -0.01037  -0.149  -0.2603  0.1485  -0.2027  0.1016  -0.2691
4.832e+09  -0.00566  -0.0776  -0.2301  0.01639  -0.1068  -0.1561  -0.1564  -0.1862
4.836e+09  -0.05396  -0.07771  -0.1067  0.2508  -0.2165  -0.002345  -0.1624  0.09319
4.84e+09  -0.06003  0.03968  0.1051  0.1973  -0.08241  0.1434  -0.03776  0.2088
4.844e+09  0.03701  0.09059  0.2811  -0.04289  0.1584  0.154  0.1593  0.2562
4.848e+09  0.07559  0.02095  0.1028  -0.1806  0.1032  -0.07563  0.2423  -0.02988
4.852e+09  0.05754  -0.07879  -0.1414  -0.2087  0.04654  -0.1707  0.01546  -0.2447
4.856e+09  -0.09422  -0.08489  -0.2613  0.05971  -0.1808  -0.1327  -0.1765  -0.09337
4.86e+09  -0.1057  -0.02641  -0.02093  0.2191  -0.1667  0.08497  -0.196  0.1904
4.864e+09  -0.1399  0.08255  0.2955  0.1461  -0.05578  0.142  0.02564  0.2333
4.868e+09  0.04307  0.1256  0.1759  -0.1329  0.1496  0.07973  0.2085  0.08982
4.872e+09  0.1638  0.06456  -0.0699  -0.2513  0.1962  -0.06971  0.1507  -0.1787
4.876e+09  0.07424  -0.108  -0.2983  -0.1165  0.02848  -0.1704  -0.06613  -0.2882
4.88e+09  -0.0466  -0.1358  -0.2786  0.1521  -0.2438  -0.1095  -0.3174  -0.01488
4.884e+09  -0.1244  -0.01961  0.108  0.3043  -0.1265  0.1473  -0.1631  0.1557
4.888e+09  -0.1009  0.1047  0.2108  0.02291  0.09377  0.1633  0.1086  0.2196
4.892e+09  0.03427  0.08515  0.1478  -0.2481  0.1639  0.01739  0.2804  -0.05069
4.896e+09  0.1012  0.03389  -0.1208  -0.3172  0.09191  -0.211  0.1188  -0.2204
4.9e+09  0.04425  -0.08375  -0.2633  0.006596  -0.08618  -0.1571  0.01133  -0.1869
4.904e+09  -0.09019  -0.142  -0.1172  0.2365  -0.2141  0.04855  -0.1976  0.04889
4.908e+09  -0.2287  0.0005072  0.1779  0.1459  -0.08125  0.1621  -0.143  0.1586
4.912e+09  -0.04194  0.1994  0.1656  0.02193  0.1031  0.2027  0.09401  0.0996
4.916e+09  0.1307  0.09522  0.03989  -0.2921  0.173  -0.09247  0.1855  0.01126
4.92e+09  0.1647  -0.0812  -0.1297  -0.1302  0.01471  -0.1782  0.06414  -0.1633
4.924e+09  0.008388  -0.1748  -0.1933  0.1451  -0.1476  -0.1111  -0.08778  -0.06505
4.928e+09  -0.1413  -0.1236  0.003838  0.2373  -0.1851  0.07333  -0.2011  0.03756
4.932e+09  -0.1539  0.008176  0.2422  0.07885  -0.03166  0.2214  -0.05101  0.2229
4.936e+09  -0.03646  0.172  0.1683  -0.1302  0.2185  0.07248  0.1521  0.08888
4.94e+09  0.06216  0.09454  -0.06978  -0.1717  0.1548  -0.08903  0.1873  -0.1883
4.944e+09  0.1189  -0.05467  -0.1975  -0.0749  -0.01431  -0.2313  -0.03173  -0.2167
4.948e+09  -0.01013  -0.1797  -0.121  0.2004  -0.1948  -0.04966  -0.1629  -0.0935
4.952e+09  -0.1294  -0.1167  0.06711  0.21  -0.1148  0.1528  -0.0758  0.1351
4.956e+09  -0.1133  0.1182  0.2046  -0.02163  0.04825  0.09912  0.04509  0.1298
4.96e+09  0.007332  0.153  0.07226  -0.2843  0.1508  0.03212  0.2164  0.005046
4.964e+09  0.1243  0.03467  -0.225  -0.1856  0.06197  -0.2044  0.1357  -0.1693
4.968e+09  0.1688  -0.1613  -0.2601  0.08671  -0.07686  -0.1834  -0.04392  -0.2197
4.972e+09  -0.04837  -0.1349  -0.03454  0.2654  -0.2355  0.02289  -0.1359  0.04787
4.976e+09  -0.1272  -0.02607  0.2393  0.04048  -0.04757  0.1955  -0.1825  0.1889
4.98e+09  -0.1684  0.1186  0.2242  -0.2077  0.1363  0.151  0.118  0.1862
4.984e+09  0.0748  0.1192  -0.07879  -0.2734  0.242  -0.006871  0.1358  -0.03997
4.988e+09  0.0857  -0.009251  -0.2865  -0.079  0.05334  -0.1897  0.0498  -0.2545
4.992e+09  0.121  -0.1043  -0.2017  0.1879  -0.159  -0.1213  -0.199  -0.1491
4.996e+09  0.002449  -0.1328  0.01201  0.2109  -0.1148  0.05069  -0.1825  0.03667
5e+09  -0.06993  -0.04913  0.3152  -0.06268  -0.02869  0.2035  0.02459  0.4564
5.004e+09  -0.07329  0.02652  0.2113  -0.2497  0.1832  0.04467  0.1102  0.1084
