# Hz S RI R 50
4e+09  -0.2126  -1.223  2.702  0.03077  -1.44  1.09  -2.309  -1.673
4.004e+09  0.1639  0.4381  -0.7266  0.1287  -0.2651  0.2977  0.3385  0.5532
4.008e+09  0.4204  0.07352  -0.06099  0.5316  0.2473  0.332  0.5608  -0.0353
4.012e+09  0.1938  -0.2921  0.3352  0.3197  0.3769  -0.03802  0.2489  -0.4987
4.016e+09  -0.1676  -0.346  0.3809  -0.2403  0.09614  -0.3493  -0.3748  -0.4163
4.02e+09  -0.3994  -0.02525  0.1064  -0.5393  -0.3196  -0.2263  -0.4866  0.05898
4.024e+09  -0.09016  0.3376  -0.4689  -0.1736  -0.4434  0.1589  -0.1686  0.4985
4.028e+09  0.2723  0.2058  -0.3547  0.3706  0.01824  0.3411  0.343  0.395
4.032e+09  0.3399  -0.04223  0.04144  0.5135  0.3313  0.2166  0.4353  -0.08405
4.036e+09  0.07775  -0.3259  0.4755  0.2063  0.2461  -0.2067  0.09478  -0.4893
4.04e+09  -0.2424  -0.2555  0.2789  -0.3907  -0.06956  -0.3847  -0.3834  -0.3412
4.044e+09  -0.2651  0.09196  -0.1048  -0.4568  -0.3663  -0.08499  -0.3814  0.1584
4.048e+09  0.01815  0.3183  -0.4279  -0.08286  -0.1851  0.3054  -0.01425  0.441
4.052e+09  0.2632  0.1181  -0.1867  0.4397  0.1406  0.3308  0.3029  0.3353
4.056e+09  0.2997  -0.1766  0.317  0.4363  0.347  0.07647  0.3382  -0.2026
4.06e+09  -0.1502  -0.262  0.509  -0.09658  0.1989  -0.3068  -0.08368  -0.3598
4.064e+09  -0.2651  -0.1173  0.04795  -0.6137  -0.2205  -0.3038  -0.3573  -0.1684
4.068e+09  -0.2388  0.2284  -0.311  -0.3684  -0.3383  0.02196  -0.3681  0.2653
4.072e+09  0.04251  0.1944  -0.5239  0.2119  -0.03826  0.3096  0.1302  0.3264
4.076e+09  0.2373  0.06441  -0.08784  0.5546  0.3267  0.2768  0.2652  0.2855
4.08e+09  0.1991  -0.2119  0.5144  0.3243  0.3243  -0.1019  0.2324  -0.3028
4.084e+09  -0.1044  -0.1847  0.4714  -0.439  -0.02552  -0.3554  -0.1036  -0.2896
4.088e+09  -0.2654  0.02846  -0.1171  -0.4534  -0.374  -0.202  -0.4204  -0.013
4.092e+09  -0.1206  0.2757  -0.366  -0.08615  -0.371  0.1802  -0.07514  0.328
4.096e+09  0.1254  0.2602  -0.2735  0.5154  0.07733  0.3687  0.1375  0.3158
4.1e+09  0.2358  -0.04371  0.1964  0.4666  0.4028  0.1447  0.1648  -0.03538
4.104e+09  0.03058  -0.2207  0.5336  -0.0364  0.1873  -0.2498  0.1213  -0.2082
4.108e+09  -0.2535  -0.162  0.08105  -0.4367  -0.1646  -0.3622  -0.2367  -0.177
4.112e+09  -0.2169  0.1511  -0.3031  -0.2904  -0.3316  0.02569  -0.2322  0.1436
4.116e+09  0.006456  0.1113  -0.4648  0.1809  -0.1429  0.3064  -0.1419  0.2453
4.12e+09  0.2336  0.08941  -0.053  0.3807  0.2788  0.3084  0.161  0.1689
4.124e+09  0.2105  -0.2007  0.3351  0.3056  0.3637  -0.0424  0.1256  -0.1763
4.128e+09  -0.1566  -0.1691  0.3025  -0.2789  0.09254  -0.3284  -0.1463  -0.2159
4.132e+09  -0.2032  -0.0467  -0.04452  -0.4967  -0.2795  -0.2131  -0.1498  -0.1365
4.136e+09  -0.1369  0.1635  -0.3991  -0.1021  -0.3016  0.1702  -0.1676  0.2069
4.14e+09  0.09741  0.1242  -0.2911  0.3855  -0.05209  0.2915  0.1594  0.1354
4.144e+09  0.2182  -0.01041  0.1917  0.4124  0.3299  0.1382  0.1221  -0.01942
4.148e+09  0.1089  -0.1927  0.3755  0.05365  0.2124  -0.2009  0.07833  -0.1311
4.152e+09  -0.1272  -0.181  0.1957  -0.4364  -0.09594  -0.3316  -0.2133  -0.1236
4.156e+09  -0.2392  0.07062  -0.3344  -0.2769  -0.368  -0.01737  -0.2249  0.03824
4.16e+09  -0.05528  0.3084  -0.3905  0.05601  -0.2246  0.2649  0.02374  0.1568
4.164e+09  0.2047  0.1843  0.03364  0.424  0.1522  0.3773  0.3165  -0.06253
4.168e+09  0.1666  -0.1365  0.4367  0.2808  0.2933  -0.02127  0.1792  -0.2409
4.172e+09  -0.1276  -0.1721  0.4128  -0.2821  0.1252  -0.2602  -0.1727  -0.2033
4.176e+09  -0.1802  -0.05493  -0.1298  -0.4377  -0.2609  -0.2594  -0.3089  -0.001085
4.18e+09  -0.2182  0.1889  -0.4909  -0.2049  -0.3328  0.06203  -0.03582  0.2491
4.184e+09  0.07971  0.1801  -0.417  0.4576  -0.06758  0.2738  0.1948  0.1529
4.188e+09  0.2124  0.0187  0.1701  0.4883  0.3185  0.1772  0.3573  -0.04763
4.192e+09  0.06353  -0.1005  0.3707  -0.02496  0.2663  -0.15  -0.03111  -0.2532
4.196e+09  -0.125  -0.149  0.1215  -0.4279  0.07344  -0.2936  -0.2813  -0.1668
4.2e+09  -0.2474  -0.003599  -0.1714  -0.2019  -0.24  -0.1223  -0.06156  0.1125
4.204e+09  -0.1222  0.2555  -0.5649  0.1142  -0.2668  0.1666  0.1017  0.2795
4.208e+09  0.17  0.2068  -0.1761  0.4053  0.1462  0.3163  0.2807  0.01309
4.212e+09  0.2798  -0.04633  0.3336  0.337  0.3178  0.1381  0.25  -0.1409
4.216e+09  0.09398  -0.2051  0.5067  -0.2238  0.2325  -0.3053  -0.02657  -0.338
4.22e+09  -0.1882  -0.1404  0.03534  -0.3999  -0.1472  -0.3163  -0.2399  -0.06191
4.224e+09  -0.1756  0.09393  -0.4889  -0.2372  -0.3555  0.03149  -0.1299  0.205
4.228e+09  -0.03907  0.2378  -0.3952  0.2926  -0.1423  0.285  0.09422  0.4426
4.232e+09  0.2743  0.1425  -0.01528  0.457  0.1663  0.2718  0.3039  -0.001607
4.236e+09  0.2335  -0.1667  0.4206  0.1299  0.3289  -0.02539  0.1581  -0.3423
4.24e+09  -0.06489  -0.1743  0.1616  -0.2851  0.0553  -0.2703  -0.2734  -0.3331
4.244e+09  -0.2328  -0.03369  -0.1434  -0.3843  -0.2295  -0.1885  -0.3682  -0.05666
4.248e+09  -0.135  0.1873  -0.5088  -0.04833  -0.2949  0.1425  -0.1533  0.3807
4.252e+09  0.1878  0.2734  -0.2157  0.492  0.01136  0.2962  0.2462  0.2505
4.256e+09  0.1671  -0.005472  0.3088  0.3616  0.2643  0.1587  0.3325  -0.02925
4.26e+09  0.1284  -0.1312  0.4384  -0.1134  0.1741  -0.1674  0.1489  -0.3706
4.264e+09  -0.162  -0.2384  0.04863  -0.378  -0.09081  -0.3635  -0.2527  -0.3728
4.268e+09  -0.295  -0.01743  -0.3644  -0.2871  -0.2915  -0.06331  -0.3452  0.07574
4.272e+09  -0.004393  0.1966  -0.3322  0.1967  -0.2923  0.3171  -0.1733  0.2397
4.276e+09  0.07484  0.1692  -0.01068  0.4431  0.1917  0.3327  0.4413  0.1894
4.28e+09  0.2087  -0.0263  0.4378  0.1174  0.3757  -0.02067  0.3321  -0.1109
4.284e+09  -0.01015  -0.2452  0.3353  -0.3366  0.1259  -0.2504  0.04542  -0.3872
4.288e+09  -0.2164  -0.2354  -0.1422  -0.4623  -0.2007  -0.2533  -0.3146  -0.2567
4.292e+09  -0.2115  -0.003633  -0.417  -0.1531  -0.323  0.0884  -0.3551  0.1654
4.296e+09  -0.04835  0.234  -0.302  0.4303  -0.02251  0.2909  -0.02252  0.4304
4.3e+09  0.1638  0.089  0.2888  0.2784  0.2859  0.1975  0.3598  0.2646
4.304e+09  0.1748  -0.09711  0.5198  -0.08297  0.3155  -0.1641  0.3258  -0.2542
4.308e+09  0.01762  -0.2031  0.02784  -0.5021  -0.02319  -0.2791  -0.03402  -0.2915
4.312e+09  -0.1566  -0.1405  -0.3098  -0.2656  -0.3576  -0.1879  -0.3371  -0.02509
4.316e+09  -0.2057  0.1355  -0.487  0.1755  -0.2963  0.2267  -0.2251  0.3328
4.32e+09  0.01545  0.2854  0.0764  0.4295  0.07812  0.2482  0.07075  0.3302
4.324e+09  0.1325  0.1918  0.3468  0.1878  0.29  0.04347  0.4224  0.1198
4.328e+09  0.2088  -0.1171  0.259  -0.2527  0.2477  -0.2077  0.2135  -0.2722
4.332e+09  -0.06093  -0.2637  -0.04378  -0.4195  -0.1742  -0.2799  -0.08031  -0.3496
4.336e+09  -0.1788  -0.05372  -0.3676  -0.09278  -0.308  0.02464  -0.3052  -0.02827
4.34e+09  -0.1248  0.1344  -0.2302  0.3644  -0.1549  0.2546  -0.3237  0.2974
4.344e+09  0.07478  0.2275  0.1658  0.4043  0.2041  0.2198  0.08819  0.184
4.348e+09  0.1991  -0.02925  0.5184  -0.01504  0.2941  -0.05082  0.3118  -0.06017
4.352e+09  0.1121  -0.1377  0.1413  -0.397  -0.007614  -0.2793  0.08136  -0.1994
4.356e+09  -0.1201  -0.2186  -0.235  -0.2304  -0.26  -0.179  -0.09032  -0.1466
4.36e+09  -0.136  0.00421  -0.3998  0.1168  -0.2066  0.2206  -0.2609  0.05703
4.364e+09  -0.01355  0.2103  -0.01924  0.379  0.05084  0.2757  0.008163  0.2424
4.368e+09  0.1005  0.08557  0.3876  0.1144  0.2735  0.1341  0.1711  0.1543
4.372e+09  0.08121  -0.01587  0.3111  -0.2903  0.1682  -0.2006  0.1921  -0.203
4.376e+09  0.04505  -0.1112  -0.1085  -0.3691  -0.1331  -0.2779  0.001367  -0.1931
4.38e+09  -0.1236  -0.06845  -0.31  -0.1574  -0.2692  -0.07497  -0.1398  -0.1754
4.384e+09  -0.09377  0.09688  -0.3684  0.3035  -0.2113  0.2183  -0.1575  0.07788
4.388e+09  0.06643  0.103  0.1632  0.3261  0.1507  0.2348  0.08068  0.2327
4.392e+09  0.1088  0.05378  0.391  0.1205  0.2834  0.04194  0.2017  -0.09111
4.396e+09  0.0855  -0.04258  0.1749  -0.3077  0.1219  -0.256  0.07438  -0.122
4.4e+09  0.0129  -0.06036  -0.2275  -0.2015  -0.242  -0.1164  -0.09763  -0.2
4.404e+09  -0.1786  0.02732  -0.266  0.0622  -0.3795  0.1197  -0.2363  -0.01468
4.408e+09  -0.02622  0.05915  0.008274  0.4356  -0.05505  0.2996  -0.1486  0.1228
4.412e+09  -0.01225  0.1257  0.2993  0.2092  0.1967  0.1918  0.2155  0.1043
4.416e+09  0.133  0.009612  0.4029  -0.2363  0.228  -0.1142  0.1133  -0.06524
4.42e+09  -0.009244  -0.1238  0.01531  -0.4252  -0.001867  -0.2701  -0.02947  -0.1495
4.424e+09  -0.05661  0.03056  -0.3476  -0.1549  -0.2275  -0.1233  -0.1655  -0.05676
4.428e+09  -0.1158  0.03093  -0.2886  0.2782  -0.1978  0.177  -0.1103  0.151
4.432e+09  -0.0006006  -0.0007594  0.04863  0.4011  0.04996  0.1529  -0.02504  0.1185
4.436e+09  0.1491  0.04517  0.438  0.05578  0.2805  0.0457  0.05561  0.04127
4.44e+09  -0.01148  -0.08887  0.2701  -0.2768  0.15  -0.2414  -0.0445  -0.1229
4.444e+09  -0.01745  -0.09685  -0.1919  -0.294  -0.1447  -0.2427  -0.08622  -0.06292
4.448e+09  -0.06363  -0.03558  -0.3799  0.07893  -0.252  0.06796  -0.2208  0.04487
4.452e+09  -0.07594  0.1089  -0.06173  0.2895  -0.1205  0.256  -0.0006769  0.152
4.456e+09  -0.00198  0.08257  0.274  0.1913  0.1668  0.1818  0.1526  0.143
4.46e+09  0.09988  0.02648  0.2762  -0.1728  0.2412  -0.09738  0.1486  -0.1249
4.464e+09  0.04098  -0.125  0.09413  -0.2805  0.01477  -0.2295  0.06765  -0.1901
4.468e+09  -0.07881  -0.1217  -0.3485  -0.1848  -0.2478  -0.09787  -0.1752  -0.08387
4.472e+09  -0.03788  0.003976  -0.3434  0.1929  -0.1987  0.0379  -0.09868  0.1667
4.476e+09  -0.01762  0.08402  0.08595  0.3423  0.0272  0.2109  0.1088  0.1264
4.48e+09  0.1677  0.1125  0.3598  0.1241  0.2977  0.1005  0.1242  0.1025
4.484e+09  0.1451  -0.03803  0.1792  -0.244  0.2037  -0.1247  0.1363  -0.1531
4.488e+09  -0.01389  -0.09584  -0.1453  -0.2351  -0.04681  -0.2607  -0.1957  -0.1629
4.492e+09  -0.1047  -0.1115  -0.3244  0.03186  -0.2642  -0.07561  -0.2311  0.1029
4.496e+09  -0.08405  -0.02699  -0.2156  0.3155  -0.1992  0.1533  -0.1391  0.1805
4.5e+09  0.09464  0.1162  0.005623  0.2617  0.01723  0.2231  0.2712  0.1303
4.504e+09  0.121  -0.004199  0.3078  -0.1118  0.2556  -0.02008  0.1973  -0.01199
4.508e+09  0.06123  -0.07049  0.05921  -0.2861  0.1528  -0.2629  0.03665  -0.07174
4.512e+09  -0.02145  -0.1241  -0.195  -0.2778  -0.1766  -0.205  -0.1023  -0.1618
4.516e+09  -0.1567  -0.05641  -0.2986  0.04291  -0.2264  0.04019  -0.3156  0.0556
4.52e+09  -0.002565  0.1709  0.03078  0.3795  -0.01882  0.1994  -0.07392  0.1681
4.524e+09  0.07829  0.1198  0.2321  0.0878  0.215  0.1625  0.2007  0.1719
4.528e+09  0.1442  0.004242  0.2452  -0.27  0.2065  -0.126  0.09097  -0.07481
4.532e+09  0.06593  -0.1808  -0.05384  -0.3021  -0.0223  -0.2734  -0.05341  -0.1322
4.536e+09  -0.06803  -0.0636  -0.3806  -0.06117  -0.2238  -0.1322  -0.1468  -0.09094
4.54e+09  -0.1413  0.03512  -0.1794  0.246  -0.2078  0.1486  -0.1862  0.176
4.544e+09  -0.07374  0.1409  0.1719  0.2383  0.04484  0.2314  0.006554  0.2003
4.548e+09  0.0762  0.103  0.2939  0.0486  0.2333  0.09804  0.2366  0.1341
4.552e+09  0.182  -0.05909  0.1411  -0.3118  0.09003  -0.1826  0.187  -0.04228
4.556e+09  0.05236  -0.09887  -0.1928  -0.1677  -0.1947  -0.1612  -0.08539  -0.1915
4.56e+09  -0.1285  -0.09079  -0.4035  0.09419  -0.2106  0.02803  -0.292  -0.1138
4.564e+09  -0.1123  0.05576  0.00343  0.3876  -0.07242  0.1966  -0.2045  0.1348
4.568e+09  0.02816  0.1073  0.1835  0.1694  0.1015  0.1244  0.08498  0.1679
4.572e+09  0.1205  0.0836  0.1594  -0.1761  0.2534  -0.01604  0.4292  0.05571
4.576e+09  0.1394  -0.05063  -0.04546  -0.3  0.1043  -0.2647  0.1057  -0.2239
4.58e+09  0.03723  -0.1463  -0.3244  -0.09027  -0.2061  -0.1636  -0.09168  -0.1773
4.584e+09  -0.08705  -0.08057  -0.2394  0.2216  -0.2781  0.04731  -0.2354  0.004145
4.588e+09  -0.1881  0.0573  0.1207  0.2037  -0.03052  0.2136  -0.1703  0.1692
4.592e+09  -0.09468  0.1104  0.3945  -0.008138  0.1813  0.1185  0.1494  0.2188
4.596e+09  0.0874  0.06657  0.143  -0.2799  0.2403  -0.161  0.234  -0.03746
4.6e+09  0.1233  -0.05624  -0.1739  -0.1983  -0.104  -0.2663  0.05276  -0.2518
4.604e+09  -0.03631  -0.1102  -0.2706  0.05104  -0.2317  -0.07395  -0.2027  -0.1289
4.608e+09  -0.09629  -0.1077  -0.0368  0.2035  -0.1292  0.1842  -0.2195  0.1136
4.612e+09  -0.04242  0.02774  0.21  0.1571  0.14  0.1915  -0.02931  0.2292
4.616e+09  -0.08585  0.08139  0.2671  -0.1231  0.2734  -0.04582  0.1578  0.1414
4.62e+09  0.1003  0.04494  -0.1105  -0.2562  0.1372  -0.1898  0.2181  -0.1038
4.624e+09  0.04451  -0.1111  -0.2521  -0.135  -0.1246  -0.1716  0.02444  -0.1319
4.628e+09  -0.04207  -0.1626  -0.2069  0.1042  -0.2134  0.05311  -0.1985  -0.02235
4.632e+09  -0.09872  -0.06401  0.05063  0.3224  -0.05733  0.2274  -0.1897  0.1258
4.636e+09  -0.05665  0.06019  0.353  0.06872  0.1673  0.1735  -0.03844  0.2098
4.64e+09  0.00301  0.09512  0.2192  -0.2856  0.2253  -0.06684  0.2269  0.03147
4.644e+09  0.1238  0.02671  -0.02241  -0.2693  -0.01764  -0.2127  0.1751  -0.1305
4.648e+09  0.03721  -0.06401  -0.2796  -0.1014  -0.1545  -0.1024  -0.03309  -0.2229
4.652e+09  -0.011  -0.06907  -0.04864  0.2484  -0.2285  0.124  -0.299  -0.04534
4.656e+09  -0.05079  0.01538  0.2479  0.2294  0.01227  0.2037  -0.09929  0.1145
4.66e+09  -0.09373  0.0634  0.2379  -0.06455  0.199  0.05198  0.09594  0.1174
4.664e+09  -0.003537  0.08694  -0.03644  -0.3333  0.1955  -0.1796  0.196  0.06086
4.668e+09  0.1786  0.03064  -0.188  -0.1615  -0.007779  -0.1751  -0.008694  -0.11
4.672e+09  0.04776  -0.08324  -0.2324  0.1117  -0.1688  0.04147  -0.1134  -0.1309
4.676e+09  -0.05104  -0.07441  0.0386  0.2044  -0.125  0.1838  -0.1258  0.08223
4.68e+09  -0.07032  0.005681  0.2525  0.2288  0.1496  0.1551  -0.06553  0.1097
4.684e+09  -0.05824  0.08019  0.2538  -0.1637  0.1861  -0.05465  0.1132  0.108
4.688e+09  -0.003573  0.07333  -0.06888  -0.2695  0.08841  -0.2567  0.1189  -0.00808
4.692e+09  0.1203  0.06365  -0.3354  0.05327  -0.1289  -0.1614  -0.01672  -0.1297
4.696e+09  0.08519  -0.0141  -0.2269  0.2718  -0.2047  0.1126  -0.03635  -0.02631
4.7e+09  0.001408  -0.1069  0.1081  0.2786  -0.04522  0.2269  -0.07767  0.09613
4.704e+09  0.003353  -0.04146  0.2147  -0.01335  0.2084  0.09946  0.06772  0.1352
4.708e+09  -0.08575  -0.02927  0.1511  -0.2406  0.1694  -0.1358  0.09976  0.04888
4.712e+09  -0.02451  0.06681  -0.2297  -0.1608  -0.06182  -0.189  0.1266  -0.1065
4.716e+09  0.01827  0.05252  -0.2243  0.1365  -0.1974  -0.06915  -0.04408  -0.1111
4.72e+09  0.01623  0.0005637  -0.05238  0.2602  -0.1417  0.1721  -0.133  0.009807
4.724e+09  0.01828  -0.02747  0.2246  0.1075  0.1115  0.191  -0.06821  0.1247
4.728e+09  0.009947  -0.0615  0.2389  -0.1099  0.2248  -0.003966  0.05951  0.08767
4.732e+09  -0.007109  0.02339  -0.1192  -0.3086  0.1204  -0.2104  0.1027  -0.07192
4.736e+09  -0.02797  0.06469  -0.2951  -0.04951  -0.08847  -0.1539  -0.002502  -0.1348
4.74e+09  0.04772  0.02622  -0.1293  0.2356  -0.1552  0.01015  -0.06122  -0.09572
4.744e+09  0.04803  -0.04916  0.1736  0.2092  -0.1068  0.2233  -0.0689  -0.04533
4.748e+09  0.01709  -0.01024  0.3023  0.007355  0.1994  0.1217  -0.06217  0.02542
4.752e+09  0.03672  -0.02062  0.09785  -0.2372  0.227  -0.1425  0.1275  0.04283
4.756e+09  -0.04608  -0.0264  -0.2522  -0.2205  -0.01151  -0.1716  0.04735  -0.06467
4.76e+09  0.004648  0.08031  -0.1824  0.1205  -0.1837  -0.1242  0.01808  -0.1267
4.764e+09  0.03509  0.04341  -0.04341  0.2339  -0.1462  0.1567  -0.03579  0.008883
4.768e+09  0.1167  0.01192  0.1778  0.1858  0.05866  0.1765  -0.0451  0.08625
4.772e+09  0.06628  -0.06227  0.1713  -0.2115  0.2014  0.1236  -0.001875  0.119
4.776e+09  -0.02468  -0.07024  -0.08819  -0.2089  0.1546  -0.1722  0.06626  0.003659
4.78e+09  -0.01232  -0.03018  -0.1931  -0.04339  -0.08549  -0.2439  0.1094  -0.06331
4.784e+09  -0.08172  -0.012  -0.1931  0.1084  -0.1985  -0.1221  -0.07986  -0.05848
4.788e+09  -0.02187  0.07096  0.1267  0.2738  -0.1072  0.1464  -0.1089  0.03348
4.792e+09  0.02547  -0.01775  0.3344  0.03128  0.04105  0.1872  0.02567  0.1144
4.796e+09  0.05672  -0.04033  0.175  -0.2548  0.1627  -0.009122  0.1653  0.01823
4.8e+09  0.01708  -0.004014  -0.126  -0.2796  0.06674  -0.173  0.1129  -0.058
4.804e+09  0.009609  0.002186  -0.2799  0.09242  -0.1214  -0.1219  0.001068  -0.1557
4.808e+09  0.03146  0.04833  -0.07298  0.2555  -0.1782  0.119  -0.1196  0.01396
4.812e+09  -0.04119  0.05062  0.1865  0.1699  -0.004177  0.184  -0.1035  0.0792
4.816e+09  -0.02583  0.009385  0.1855  -0.02593  0.1506  0.1232  0.05982  0.09576
4.82e+09  0.01084  0.009976  0.03749  -0.2819  0.2004  -0.1117  0.04536  0.1044
4.824e+09  0.03064  0.004241  -0.2622  -0.1254  -0.0239  -0.1659  0.03027  -0.03851
4.828e+09  -0.04631  0.001258  -0.2225  0.158  -0.1476  -0.03151  -0.03578  -0.05059
4.832e+09  -0.03757  0.008308  0.04295  0.2475  -0.1691  0.1525  -0.0184  0.02036
4.836e+09  -0.002896  0.0554  0.2015  0.06622  0.08846  0.2512  -0.06464  0.03978
4.84e+09  0.02106  -0.005863  0.1272  -0.2311  0.1647  0.03635  -0.01949  0.02851
4.844e+09  0.0018  0.004756  -0.1582  -0.1716  0.07979  -0.1543  0.07531  0.01285
4.848e+09  0.003942  -0.08848  -0.1502  -0.01578  -0.1667  -0.1562  0.04318  -0.1154
4.852e+09  -0.003348  -0.07356  -0.03736  0.2256  -0.2084  -0.007968  -0.03378  -0.1041
4.856e+09  -0.03411  0.01762  0.0999  0.1907  -0.06794  0.1446  -0.007728  -0.04891
4.86e+09  -0.00323  0.02032  0.1896  -0.04351  0.08399  0.1189  0.01275  0.006961
4.864e+09  0.02409  0.04637  0.05949  -0.1903  0.205  -0.06962  -0.0429  0.08395
4.868e+09  -0.003152  0.04449  -0.2057  -0.1699  0.02126  -0.1708  0.01656  -0.006172
4.872e+09  0.001959  -0.01023  -0.2386  0.07228  -0.1229  -0.08939  0.1304  -0.08605
4.876e+09  0.01715  -0.04595  -0.01066  0.2882  -0.06355  0.08099  -0.1072  -0.1342
4.88e+09  -0.04432  -0.02708  0.1662  0.05354  0.04358  0.1902  -0.03813  0.003621
4.884e+09  -0.07337  -0.04564  0.1525  -0.1675  0.1548  0.08357  0.0285  0.05932
4.888e+09  -0.03767  0.02553  -0.103  -0.2276  0.1418  -0.1013  0.03185  0.1019
4.892e+09  0.03526  0.02047  -0.1727  -0.04337  -0.07373  -0.226  0.03953  0.05141
4.896e+09  0.07846  -0.02273  -0.1813  0.2204  -0.1945  -0.07334  -0.06863  0.01758
4.9e+09  -0.005925  -0.07286  0.09511  0.1921  -0.1282  0.119  0.04965  -0.05872
4.904e+09  0.004316  -0.0234  0.2287  0.06833  0.08177  0.1542  -0.04909  0.00476
4.908e+09  -0.04328  -0.01759  0.06789  -0.1339  0.2075  0.04117  -0.02933  0.06337
4.912e+09  -0.04493  0.08281  -0.1369  -0.1458  0.103  -0.1732  0.07056  0.1058
4.916e+09  0.06508  0.0694  -0.2166  0.02586  -0.08553  -0.1436  0.06897  0.009436
4.92e+09  0.1253  0.01658  0.01055  0.2461  -0.178  0.05694  0.04498  -0.03554
4.924e+09  0.09346  -0.08328  0.1365  0.1058  -0.07228  0.1647  0.02435  -0.04593
4.928e+09  -0.02852  -0.1461  0.1444  -0.07894  0.1146  0.1237  -0.02583  0.003738
4.932e+09  -0.1086  -0.04209  -0.05268  -0.21  0.192  -0.05927  -0.02073  0.08138
4.936e+09  -0.1046  0.08779  -0.179  -0.06568  -0.01382  -0.1478  0.02896  0.04235
4.94e+09  0.0797  0.1191  -0.2074  0.1085  -0.09855  -0.05873  0.06888  0.04452
4.944e+09  0.06142  0.02824  0.09771  0.2228  -0.1627  0.06611  0.05286  -0.08559
4.948e+09  0.08853  -0.06285  0.1932  -0.0222  0.03295  0.1801  -0.0362  0.03043
4.952e+09  -0.02699  -0.1197  0.1711  -0.119  0.1729  0.02588  -0.04364  -0.009188
4.956e+09  -0.1183  -0.03664  -0.07642  -0.1521  0.1006  -0.1347  0.05937  -0.02227
4.96e+09  -0.1129  0.1167  -0.1488  0.01004  -0.1388  -0.1735  0.01465  0.05592
4.964e+09  0.04963  0.08989  0.01042  0.1938  -0.1328  0.01577  0.0626  -0.08142
4.968e+09  0.1431  0.0561  0.1811  0.1682  -0.09797  0.107  0.0204  -0.04266
4.972e+09  0.09959  -0.07231  0.1849  -0.08205  0.07835  0.1651  -0.08745  -0.03649
4.976e+09  -0.0479  -0.07166  -0.04587  -0.2432  0.184  -0.04854  -0.005698  0.08431
4.98e+09  -0.114  -0.02047  -0.1469  -0.1376  0.07861  -0.1903  -0.04196  0.05602
4.984e+09  -0.05552  0.1458  -0.1054  0.1446  -0.07768  -0.127  0.04903  0.01451
4.988e+09  0.09232  0.1572  0.003926  0.1578  -0.1967  0.1063  0.09233  -0.02963
4.992e+09  0.0855  -0.01421  0.2166  0.05567  -0.02327  0.1801  0.001794  0.03888
