# Hz S RI R 50
4e+09  1.521  2.689  -3.276  0.6207  -1.633  -2.508  3.033  -1.7
4.004e+09  0.6763  -0.3384  -0.3761  -0.4077  -0.4001  0.07485  -0.05092  0.201
4.008e+09  -0.04744  -0.8132  -0.4953  0.08038  -0.04336  0.3995  0.2159  0.1053
4.012e+09  -0.683  -0.298  0.007973  0.5202  0.3017  0.2473  0.3097  -0.08641
4.016e+09  -0.5518  0.4995  0.3571  0.1695  0.2842  -0.1655  -0.01679  -0.2231
4.02e+09  0.1463  0.7971  0.4886  -0.2128  0.06841  -0.3286  -0.2844  -0.1592
4.024e+09  0.7077  0.1952  -0.06608  -0.4343  -0.3052  -0.1169  -0.3634  0.2028
4.028e+09  0.5228  -0.6819  -0.4442  -0.1118  -0.2107  0.1919  -0.04353  0.3422
4.032e+09  -0.3446  -0.7094  -0.26  0.3975  0.04862  0.3276  0.2995  0.1052
4.036e+09  -0.7904  0.04406  0.1923  0.417  0.4143  -0.0292  0.2198  -0.1926
4.04e+09  -0.3212  0.6976  0.431  0.08961  0.1974  -0.3643  -0.05642  -0.3692
4.044e+09  0.5024  0.6037  0.2202  -0.3798  -0.2069  -0.3216  -0.2317  -0.2012
4.048e+09  0.713  -0.1461  -0.3425  -0.2298  -0.3887  0.02869  -0.2553  0.1363
4.052e+09  0.1485  -0.7165  -0.4302  0.1001  -0.157  0.3229  0.0814  0.3582
4.056e+09  -0.6315  -0.3981  -0.05563  0.3609  0.2052  0.3081  0.2915  0.1337
4.06e+09  -0.6138  0.3218  0.3872  0.1601  0.3703  -0.08223  0.1755  -0.1801
4.064e+09  0.00557  0.7103  0.3448  -0.2146  0.06171  -0.2843  0.002689  -0.4574
4.068e+09  0.6285  0.2921  -0.0877  -0.5202  -0.2748  -0.1379  -0.3788  -0.0707
4.072e+09  0.529  -0.435  -0.4142  -0.1173  -0.2024  0.09344  -0.1829  0.2364
4.076e+09  -0.1327  -0.6303  -0.3136  0.2912  -0.02456  0.326  0.03338  0.3923
4.08e+09  -0.7049  -0.2177  0.05352  0.458  0.3067  0.09538  0.318  0.07536
4.084e+09  -0.4178  0.533  0.4695  0.02767  0.2153  -0.2269  0.2171  -0.2491
4.088e+09  0.2706  0.6051  0.2154  -0.3775  -0.1567  -0.3138  -0.06034  -0.3073
4.092e+09  0.6544  0.04713  -0.227  -0.3913  -0.3439  -0.05797  -0.4285  -0.08964
4.096e+09  0.3949  -0.6157  -0.4212  0.03453  -0.2454  0.3161  -0.2784  0.2886
4.1e+09  -0.4037  -0.532  -0.06899  0.4096  0.1191  0.2551  0.2073  0.1938
4.104e+09  -0.606  0.08233  0.3087  0.3162  0.3382  0.01143  0.2817  0.06311
4.108e+09  -0.1897  0.5952  0.4671  -0.1714  0.1565  -0.349  0.2203  -0.2993
4.112e+09  0.509  0.4982  0.07057  -0.4229  -0.2374  -0.227  -0.1123  -0.3462
4.116e+09  0.6262  -0.2045  -0.3753  -0.2643  -0.3216  0.07573  -0.4123  0.07327
4.12e+09  0.09982  -0.5815  -0.3656  0.2647  -0.03783  0.2723  -0.1225  0.3502
4.124e+09  -0.5026  -0.3592  -0.02687  0.4477  0.2186  0.1864  0.1988  0.2769
4.128e+09  -0.6076  0.2394  0.4381  0.1823  0.2733  -0.07308  0.3419  -0.144
4.132e+09  -0.05389  0.6666  0.3717  -0.2686  0.02942  -0.2639  0.1018  -0.3372
4.136e+09  0.5672  0.3153  -0.2648  -0.3419  -0.2376  -0.1565  -0.1822  -0.2337
4.14e+09  0.6146  -0.3365  -0.2773  -0.1946  -0.3077  0.1633  -0.359  0.1693
4.144e+09  -0.1196  -0.5798  -0.1843  0.2781  -0.01061  0.2922  0.05212  0.319
4.148e+09  -0.6071  -0.2507  0.1649  0.2969  0.2673  0.06773  0.2252  0.1322
4.152e+09  -0.4559  0.4632  0.3794  -0.09638  0.2498  -0.2188  0.1738  -0.1834
4.156e+09  0.1487  0.61  0.223  -0.4477  -0.09717  -0.3096  -0.03964  -0.3176
4.16e+09  0.636  0.1274  -0.1839  -0.2699  -0.2944  -0.04775  -0.2307  -0.09131
4.164e+09  0.4055  -0.525  -0.3859  0.1562  -0.1995  0.2657  -0.1024  0.09357
4.168e+09  -0.2379  -0.5693  0.02874  0.4437  0.2083  0.2569  0.1908  0.2616
4.172e+09  -0.6577  0.03572  0.4068  0.2664  0.2732  0.001416  0.2524  0.002971
4.176e+09  -0.3007  0.5474  0.3321  -0.251  0.1054  -0.276  0.04783  -0.2127
4.18e+09  0.3408  0.5144  0.05273  -0.3717  -0.2347  -0.2135  -0.07439  -0.1432
4.184e+09  0.5577  -0.06377  -0.3214  -0.1342  -0.1904  0.03753  -0.2034  0.1216
4.188e+09  0.2322  -0.5679  -0.2029  0.2123  -0.1242  0.2471  0.04417  0.1606
4.192e+09  -0.3788  -0.4226  0.2587  0.4131  0.273  0.1631  0.2384  0.1197
4.196e+09  -0.5507  0.1569  0.3874  0.01007  0.2733  -0.1694  0.1012  -0.137
4.2e+09  -0.1278  0.5864  0.1914  -0.4707  0.08183  -0.2022  0.01948  -0.2673
4.204e+09  0.5046  0.4558  -0.1548  -0.3089  -0.3027  -0.08535  -0.1226  0.08792
4.208e+09  0.5558  -0.192  -0.4238  -0.007735  -0.2163  0.1507  -0.1064  0.166
4.212e+09  -0.02574  -0.6169  -0.1895  0.5155  0.1202  0.4072  0.2593  0.1477
4.216e+09  -0.5503  -0.3067  0.2582  0.2165  0.3872  -0.06726  0.2433  -0.08688
4.22e+09  -0.5957  0.3938  0.4606  -0.2887  0.2296  -0.2764  0.0197  -0.1766
4.224e+09  0.002089  0.6208  0.04606  -0.4115  -0.1739  -0.2671  -0.2942  -0.01635
4.228e+09  0.5919  0.2043  -0.3607  -0.2149  -0.3013  -0.005792  -0.1375  0.1724
4.232e+09  0.4577  -0.4619  -0.4065  0.2391  -0.1777  0.3426  0.08966  0.1654
4.236e+09  -0.2259  -0.6034  0.1208  0.3259  0.1481  0.2527  0.2039  -0.001376
4.24e+09  -0.6415  -0.05581  0.4269  0.1285  0.3403  -0.05876  0.2721  -0.2771
4.244e+09  -0.3736  0.4854  0.2201  -0.3222  0.07916  -0.383  -0.09753  -0.2557
4.248e+09  0.256  0.5219  -0.1211  -0.4318  -0.2378  -0.1512  -0.3337  0.01231
4.252e+09  0.5577  0.0365  -0.4611  0.08266  -0.3451  0.1174  -0.04322  0.3434
4.256e+09  0.2233  -0.5079  -0.09218  0.3917  0.04161  0.3127  0.3477  0.2581
4.26e+09  -0.4009  -0.497  0.286  0.1674  0.332  0.2041  0.3307  -0.08223
4.264e+09  -0.5287  0.07114  0.3358  -0.1878  0.2155  -0.2579  0.08842  -0.3336
4.268e+09  -0.09525  0.6002  0.1324  -0.4176  -0.07117  -0.2384  -0.2996  -0.1314
4.272e+09  0.4466  0.368  -0.3062  -0.2034  -0.3042  0.01788  -0.3036  0.1455
4.276e+09  0.5042  -0.2358  -0.2729  0.2043  -0.1975  0.1962  -0.09942  0.4083
4.28e+09  0.01992  -0.5404  0.02807  0.3788  0.2066  0.3022  0.3381  0.09172
4.284e+09  -0.4584  -0.2588  0.4701  0.09958  0.2651  -0.05431  0.3303  -0.2201
4.288e+09  -0.425  0.2982  0.2879  -0.2731  0.0538  -0.258  -0.19  -0.319
4.292e+09  0.09388  0.5464  -0.2004  -0.4189  -0.2635  -0.2342  -0.313  -0.165
4.296e+09  0.5091  0.203  -0.3483  -0.05973  -0.3379  0.05981  -0.2918  0.283
4.3e+09  0.3775  -0.3502  -0.1354  0.3205  -0.1196  0.2402  0.1024  0.3778
4.304e+09  -0.1964  -0.4775  0.272  0.298  0.2777  0.07797  0.3439  0.03347
4.308e+09  -0.5114  -0.1151  0.3349  -0.08071  0.2437  -0.1286  0.3036  -0.325
4.312e+09  -0.3245  0.3649  0.0292  -0.351  -0.03997  -0.2706  -0.1397  -0.358
4.316e+09  0.2421  0.3914  -0.3149  -0.2375  -0.2577  -0.03002  -0.4262  0.02532
4.32e+09  0.4212  0.0025  -0.3784  0.2171  -0.2977  0.1862  -0.2285  0.3714
4.324e+09  0.1805  -0.3725  -0.04653  0.3473  0.04665  0.3028  0.2723  0.3783
4.328e+09  -0.2543  -0.3506  0.4028  0.2214  0.2732  0.05569  0.5048  -0.06472
4.332e+09  -0.3759  0.09888  0.3689  -0.2378  0.1818  -0.2257  0.1269  -0.4112
4.336e+09  -0.1599  0.4774  -0.1451  -0.4634  -0.1073  -0.2686  -0.3103  -0.3361
4.34e+09  0.3511  0.2786  -0.4309  -0.1889  -0.2699  -0.02042  -0.4188  0.05295
4.344e+09  0.4298  -0.1618  -0.2285  0.3475  -0.1264  0.2305  -0.1182  0.4508
4.348e+09  -0.02586  -0.4008  0.1748  0.3475  0.09014  0.224  0.3889  0.4011
4.352e+09  -0.3858  -0.1328  0.4349  0.03871  0.2491  -0.005273  0.492  -0.2199
4.356e+09  -0.3307  0.1724  0.0874  -0.3384  0.09484  -0.2327  0.01031  -0.5497
4.36e+09  -0.01942  0.383  -0.3211  -0.3359  -0.2212  -0.2346  -0.3065  -0.2098
4.364e+09  0.4298  0.1771  -0.4131  0.03925  -0.2504  0.1133  -0.408  0.2909
4.368e+09  0.3349  -0.2939  -0.1162  0.3067  -0.03744  0.2298  0.06231  0.4103
4.372e+09  -0.1333  -0.3746  0.3334  0.2715  0.2806  0.1706  0.3994  0.1029
4.376e+09  -0.3887  0.0009218  0.2989  -0.1445  0.1849  -0.1884  0.3268  -0.3115
4.38e+09  -0.1981  0.2491  -0.02949  -0.3818  -0.0283  -0.2941  -0.04987  -0.4396
4.384e+09  0.1582  0.3803  -0.3389  -0.2822  -0.2978  -0.08528  -0.4506  -0.05673
4.388e+09  0.33  0.0007562  -0.3266  0.2742  -0.2227  0.2229  -0.1456  0.3462
4.392e+09  0.2413  -0.3307  0.1309  0.3492  0.109  0.2697  0.1556  0.3105
4.396e+09  -0.1867  -0.2848  0.3977  0.09121  0.2421  0.02167  0.3811  -0.01328
4.4e+09  -0.3389  0.08487  0.2534  -0.1899  0.1481  -0.2333  0.2014  -0.3976
4.404e+09  -0.06457  0.3511  -0.08847  -0.3415  -0.1515  -0.2415  -0.2754  -0.2647
4.408e+09  0.2178  0.222  -0.291  0.1014  -0.2781  0.05489  -0.3121  -0.03032
4.412e+09  0.3784  -0.1861  -0.1139  0.2487  -0.09093  0.2048  -0.0004882  0.2972
4.416e+09  0.08434  -0.3657  0.1959  0.2521  0.1755  0.2343  0.2493  0.2173
4.42e+09  -0.2952  -0.1888  0.3035  -0.1066  0.2648  -0.1235  0.2578  -0.2478
4.424e+09  -0.3306  0.1495  0.07954  -0.3243  0.04808  -0.2588  0.03149  -0.3069
4.428e+09  0.01052  0.3972  -0.3458  -0.2014  -0.1616  -0.1696  -0.3114  -0.06567
4.432e+09  0.3227  0.1016  -0.3447  0.1397  -0.2533  0.129  -0.2241  0.2791
4.436e+09  0.3227  -0.2009  0.01004  0.3768  0.05855  0.2632  0.09282  0.3162
4.44e+09  -0.1172  -0.3748  0.248  0.08169  0.263  0.06094  0.3639  0.09777
4.444e+09  -0.4084  -0.109  0.3014  -0.1684  0.2394  -0.2363  0.186  -0.1872
4.448e+09  -0.2677  0.3444  -0.1385  -0.2037  -0.06814  -0.2462  -0.1446  -0.2406
4.452e+09  0.1291  0.3462  -0.3241  0.004237  -0.2472  -0.06261  -0.2455  0.02261
4.456e+09  0.3545  0.06562  -0.09156  0.3042  -0.1805  0.2972  -0.09775  0.3364
4.46e+09  0.1868  -0.2836  0.3317  0.2453  0.1534  0.2619  0.2499  0.1899
4.464e+09  -0.2428  -0.3159  0.3687  -0.002619  0.2959  -0.02114  0.2338  -0.118
4.468e+09  -0.3577  0.023  0.06996  -0.3416  0.06761  -0.2708  0.04016  -0.3396
4.472e+09  -0.1726  0.3651  -0.168  -0.2502  -0.1505  -0.2057  -0.2253  -0.1066
4.476e+09  0.1498  0.3323  -0.2308  0.05256  -0.2518  0.06485  -0.2328  0.1969
4.48e+09  0.3622  -0.133  -0.04032  0.2196  -0.02959  0.2613  0.06207  0.2692
4.484e+09  0.07721  -0.3486  0.2411  0.1687  0.23  0.1425  0.2775  0.08213
4.488e+09  -0.2558  -0.2291  0.2411  -0.2428  0.1464  -0.1056  0.1533  -0.1988
4.492e+09  -0.2724  0.07159  -0.04855  -0.3123  -0.003216  -0.1915  -0.1566  -0.3018
4.496e+09  -0.0082  0.3538  -0.2941  -0.08772  -0.2561  -0.07012  -0.3099  -0.05443
4.5e+09  0.3598  0.2143  -0.3385  0.2593  -0.204  0.1988  -0.3124  0.3647
4.504e+09  0.2621  -0.2067  0.07817  0.3152  0.009325  0.2611  0.1616  0.2347
4.508e+09  -0.0006599  -0.3229  0.343  -0.01063  0.1556  0.05532  0.3509  -0.1263
4.512e+09  -0.3184  -0.09888  0.2077  -0.28  0.09336  -0.1157  0.05562  -0.3925
4.516e+09  -0.2211  0.1121  -0.1097  -0.2751  -0.06932  -0.2074  -0.2257  -0.1692
4.52e+09  0.06007  0.321  -0.3478  0.05141  -0.2546  0.02652  -0.2298  0.1312
4.524e+09  0.2679  0.007923  -0.1164  0.2219  -0.1172  0.2041  -0.0268  0.3165
4.528e+09  0.1906  -0.234  0.2699  0.3074  0.1221  0.2243  0.2227  0.09399
4.532e+09  -0.1379  -0.3246  0.2733  -0.08632  0.1579  -0.03884  0.2203  -0.2652
4.536e+09  -0.3596  -0.01463  -0.06207  -0.1944  0.01706  -0.268  -0.2085  -0.2954
4.54e+09  -0.1382  0.2779  -0.232  -0.1281  -0.1877  -0.1466  -0.3587  -0.03136
4.544e+09  0.07165  0.2727  -0.2496  0.1239  -0.208  0.07758  -0.123  0.1599
4.548e+09  0.252  0.04681  0.05883  0.2168  -0.02032  0.1846  0.1866  0.2869
4.552e+09  0.1855  -0.2368  0.2968  0.08271  0.2199  0.08969  0.3337  -0.07018
4.556e+09  -0.1012  -0.2278  0.1678  -0.3127  0.1658  -0.1678  0.173  -0.3327
4.56e+09  -0.2869  0.02085  -0.06613  -0.277  -0.03144  -0.2008  -0.1846  -0.4281
4.564e+09  -0.1393  0.2513  -0.3196  -0.05292  -0.2283  -0.09598  -0.4371  -0.0005144
4.568e+09  0.1625  0.2363  -0.1605  0.2273  -0.1822  0.07961  -0.1713  0.3846
4.572e+09  0.1884  0.004778  0.1275  0.1984  0.08102  0.1571  0.2619  0.2296
4.576e+09  0.03852  -0.2337  0.243  -0.09906  0.1834  0.05577  0.3387  -0.09264
4.58e+09  -0.1971  -0.1831  0.1442  -0.2764  0.1358  -0.1591  0.03683  -0.3681
4.584e+09  -0.2698  0.02225  -0.1825  -0.1386  -0.1027  -0.2122  -0.3131  -0.1885
4.588e+09  -0.01181  0.2011  -0.1757  0.187  -0.2663  0.05709  -0.2949  0.152
4.592e+09  0.1955  0.1846  0.1072  0.2751  -0.07233  0.2425  0.02232  0.3491
4.596e+09  0.2328  -0.07849  0.2697  0.1237  0.1277  0.2045  0.2526  0.1806
4.6e+09  0.003733  -0.2196  0.263  -0.2035  0.2201  -0.06082  0.2394  -0.2861
4.604e+09  -0.2539  -0.1585  -0.149  -0.3501  0.002776  -0.2955  -0.02996  -0.3921
4.608e+09  -0.2022  0.1186  -0.2455  -0.0736  -0.2267  -0.07564  -0.3964  -0.1066
4.612e+09  -0.07062  0.1788  -0.1938  0.2051  -0.2425  0.1635  -0.438  0.2105
4.616e+09  0.1515  0.1275  0.04828  0.2941  -0.008326  0.2535  0.06789  0.3561
4.62e+09  0.1568  -0.115  0.2373  0.02938  0.1592  0.1247  0.2684  0.09525
4.624e+09  -0.003581  -0.1824  0.07692  -0.2024  0.185  -0.1358  0.2492  -0.2088
4.628e+09  -0.1669  -0.08042  -0.218  -0.223  -0.03727  -0.2692  -0.1732  -0.3024
4.632e+09  -0.1495  0.1962  -0.2964  0.1383  -0.1985  -0.03517  -0.3558  0.007987
4.636e+09  0.009199  0.1178  0.002822  0.2447  -0.2089  0.1496  -0.1862  0.2928
4.64e+09  0.1755  0.04495  0.1606  0.08758  0.07624  0.1817  0.1866  0.2866
4.644e+09  0.04632  -0.1447  0.2298  -0.1215  0.199  0.002508  0.3235  -0.1176
4.648e+09  -0.1166  -0.1659  -0.02636  -0.3328  0.1328  -0.2788  0.1502  -0.3424
4.652e+09  -0.1624  0.02911  -0.2935  -0.1006  -0.1575  -0.1943  -0.2726  -0.3071
4.656e+09  -0.08608  0.1542  -0.1461  0.2255  -0.2182  -0.01437  -0.3171  0.1301
4.66e+09  0.0713  0.1106  0.0207  0.2856  -0.0991  0.1996  0.00755  0.3073
4.664e+09  0.1633  0.0293  0.3325  -0.02478  0.2222  0.1824  0.2089  0.08371
4.668e+09  0.08972  -0.1026  0.1673  -0.2403  0.161  -0.1161  0.2904  -0.1771
4.672e+09  -0.06025  -0.1698  -0.1274  -0.2386  0.01411  -0.2113  0.01233  -0.3414
4.676e+09  -0.1374  -0.0266  -0.2695  0.03419  -0.09248  -0.07023  -0.2789  -0.05508
4.68e+09  -0.00137  0.0884  -0.04154  0.2704  -0.177  0.09607  -0.2765  0.2198
4.684e+09  0.07906  0.06586  0.2248  0.2381  0.01991  0.1996  0.1121  0.2613
4.688e+09  0.06849  -0.07649  0.2391  -0.08912  0.2258  0.08438  0.4419  0.05526
4.692e+09  -0.01236  -0.1281  0.09163  -0.3132  0.09865  -0.1456  0.2164  -0.2396
4.696e+09  -0.1082  -0.04977  -0.2848  -0.1261  -0.07926  -0.2272  -0.1542  -0.2844
4.7e+09  -0.01877  0.137  -0.186  0.1491  -0.1958  -0.02595  -0.4003  0.03188
4.704e+09  0.02727  0.08727  0.0468  0.3163  -0.1234  0.1707  -0.1618  0.3488
4.708e+09  0.1139  -0.02271  0.2005  0.1496  0.1102  0.1899  0.169  0.2978
4.712e+09  0.05298  -0.03163  0.2081  -0.1725  0.2229  -0.0741  0.2579  -0.1138
4.716e+09  -0.1  -0.1108  -0.1105  -0.2664  0.09856  -0.2244  0.1018  -0.2363
4.72e+09  -0.08757  -0.02645  -0.2509  -0.04491  -0.1754  -0.1367  -0.18  -0.2076
4.724e+09  -0.06314  0.08954  -0.1484  0.2196  -0.1759  0.122  -0.2664  0.1302
4.728e+09  0.05603  0.1189  0.1762  0.2285  0.008271  0.2151  -0.03378  0.3127
4.732e+09  0.04861  0.009812  0.218  -0.06837  0.1554  0.1351  0.249  0.1979
4.736e+09  -0.03276  -0.105  0.1187  -0.2778  0.1792  -0.1389  0.1455  -0.1425
4.74e+09  -0.06162  -0.03661  -0.2106  -0.1819  -0.01166  -0.2054  -0.08767  -0.3443
4.744e+09  -0.07237  0.09271  -0.2354  0.05414  -0.2122  -0.06846  -0.2018  -0.1377
4.748e+09  -0.01994  0.1167  0.01288  0.2763  -0.09902  0.1701  -0.2658  0.1802
4.752e+09  0.04473  0.08164  0.1361  0.1517  -0.01051  0.2694  0.08  0.3662
4.756e+09  0.1232  -0.02234  0.2597  -0.0712  0.2652  0.04388  0.3177  -0.02027
4.76e+09  -0.06741  -0.1296  -0.04426  -0.2271  0.1682  -0.1958  0.1755  -0.2211
4.764e+09  -0.09806  -0.04211  -0.2128  -0.05326  -0.09025  -0.1768  -0.1246  -0.2562
4.768e+09  -0.03734  0.08691  -0.2147  0.1455  -0.2355  -0.02363  -0.3425  -0.02214
4.772e+09  0.05394  0.1483  0.06498  0.2582  -0.07818  0.1494  -0.06298  0.2291
4.776e+09  0.1311  0.02023  0.2118  0.001265  0.1223  0.2018  0.1592  0.1851
4.78e+09  0.1356  -0.1284  0.1414  -0.1864  0.2065  -0.005055  0.289  -0.09501
4.784e+09  -0.0856  -0.114  -0.1675  -0.1255  0.0545  -0.2373  0.08251  -0.2201
4.788e+09  -0.1478  -0.008549  -0.3031  0.0403  -0.08398  -0.1044  -0.2324  -0.1699
4.792e+09  -0.05408  0.1395  -0.1205  0.2  -0.186  0.058  -0.1857  0.1751
4.796e+09  0.0668  0.1081  0.1975  0.1659  -0.04292  0.1762  0.0214  0.314
4.8e+09  0.1682  -0.02334  0.2529  -0.1454  0.1781  0.06445  0.2008  0.1567
4.804e+09  0.064  -0.1231  0.01509  -0.2425  0.1672  -0.08883  0.2816  -0.2417
4.808e+09  -0.09921  -0.1131  -0.2109  -0.1431  0.01103  -0.1939  -0.07033  -0.3178
4.812e+09  -0.2007  0.07086  -0.1539  0.06032  -0.1901  -0.06238  -0.3396  -0.08993
4.816e+09  -0.06982  0.172  0.004666  0.2332  -0.09379  0.1514  -0.2179  0.237
4.82e+09  0.05917  0.09112  0.2143  0.1095  0.04217  0.1229  0.2501  0.284
4.824e+09  0.1553  -0.04187  0.1935  -0.1938  0.1648  0.0005707  0.263  -0.02705
4.828e+09  0.07108  -0.1975  -0.07424  -0.1795  0.107  -0.1931  0.1535  -0.2397
4.832e+09  -0.1518  -0.06838  -0.295  -0.01788  -0.09981  -0.1806  -0.1531  -0.3123
4.836e+09  -0.1173  0.0457  -0.1191  0.1549  -0.1966  0.03142  -0.3005  -0.03424
4.84e+09  -0.008939  0.2068  0.1366  0.2371  -0.1115  0.1436  -0.09684  0.3058
4.844e+09  0.1858  0.06629  0.1991  -0.0512  0.1033  0.167  0.2647  0.2915
4.848e+09  0.1827  -0.1323  0.06476  -0.2659  0.1746  -0.06329  0.2514  -0.02994
4.852e+09  0.01291  -0.1782  -0.1323  -0.162  0.01461  -0.1786  0.0667  -0.3032
4.856e+09  -0.1743  -0.09383  -0.2298  0.06578  -0.1513  -0.09497  -0.1875  -0.1081
4.86e+09  -0.2103  0.08452  -0.04722  0.2341  -0.1408  0.05634  -0.1984  0.188
4.864e+09  0.00528  0.2042  0.2178  0.07382  -0.002119  0.2021  -0.09761  0.293
4.868e+09  0.1636  0.1427  0.208  -0.154  0.1672  0.1115  0.2303  0.04957
4.872e+09  0.1959  -0.08028  -0.03624  -0.2615  0.175  -0.1168  0.2967  -0.2221
4.876e+09  0.023  -0.2489  -0.1527  -0.07998  -0.01059  -0.1545  -0.1376  -0.2725
4.88e+09  -0.168  -0.1775  -0.1573  0.1501  -0.1828  -0.06707  -0.3624  -0.1262
4.884e+09  -0.1951  0.1041  0.1062  0.2038  -0.1294  0.1469  -0.2823  0.1886
4.888e+09  0.03691  0.2362  0.3116  0.03946  0.05312  0.1629  0.05971  0.2557
4.892e+09  0.237  0.06266  0.09221  -0.199  0.2071  -0.04781  0.2718  0.04332
4.896e+09  0.1576  -0.08912  -0.07993  -0.2183  0.1099  -0.1805  0.1777  -0.2231
4.9e+09  -0.1185  -0.295  -0.2487  -0.01458  -0.1296  -0.1379  -0.1576  -0.1629
4.904e+09  -0.2614  0.0102  -0.04182  0.1994  -0.2092  0.08675  -0.2797  0.02503
4.908e+09  -0.1813  0.2049  0.1633  0.1173  -0.05257  0.2222  -0.1131  0.26
4.912e+09  0.02483  0.2247  0.2088  -0.09076  0.1479  0.1407  0.2248  0.212
4.916e+09  0.1969  0.03877  0.03215  -0.2318  0.178  -0.05494  0.2631  -0.031
4.92e+09  0.1212  -0.1514  -0.1805  -0.09181  0.01363  -0.158  0.02347  -0.3039
4.924e+09  -0.05691  -0.1691  -0.198  0.09512  -0.1364  -0.176  -0.1908  -0.1845
4.928e+09  -0.2335  0.03907  0.001734  0.2149  -0.1935  0.08473  -0.2201  0.1001
4.932e+09  -0.1033  0.1433  0.2127  0.1361  0.05649  0.1803  -0.03615  0.2908
4.936e+09  0.1212  0.1841  0.1505  -0.1768  0.2108  0.1129  0.2059  0.08705
4.94e+09  0.1973  -0.02286  -0.1435  -0.2551  0.1616  -0.1135  0.2045  -0.1468
4.944e+09  0.07639  -0.2217  -0.2005  -0.09048  -0.0377  -0.1925  0.02073  -0.2847
4.948e+09  -0.08533  -0.1547  -0.1235  0.1881  -0.1466  -0.06394  -0.2404  -0.06635
4.952e+09  -0.1986  -0.009871  0.1373  0.1957  -0.1254  0.1469  -0.1957  0.09013
4.956e+09  -0.05077  0.1575  0.1681  -0.07899  0.07488  0.1509  0.1408  0.2377
4.96e+09  0.163  0.1244  0.07818  -0.1556  0.1563  0.003765  0.2437  0.07116
4.964e+09  0.1305  0.007882  -0.152  -0.1477  0.03713  -0.1443  0.08288  -0.1712
4.968e+09  -0.0124  -0.1521  -0.1606  0.1007  -0.1157  -0.1609  -0.1662  -0.2578
4.972e+09  -0.1637  -0.07952  -0.01123  0.2322  -0.1432  0.03342  -0.2695  0.06104
4.976e+09  -0.1556  0.1122  0.2371  0.09366  -0.04172  0.1586  -0.1306  0.2578
4.98e+09  0.002458  0.155  0.1761  -0.06752  0.1445  0.1403  0.2078  0.1921
4.984e+09  0.1224  0.07032  -0.04482  -0.176  0.1238  -0.1089  0.2667  -0.08911
4.988e+09  0.1488  -0.05961  -0.2084  -0.06257  0.003582  -0.1717  0.09575  -0.305
4.992e+09  0.002655  -0.1584  -0.05294  0.1821  -0.1601  -0.01944  -0.1898  -0.2082
4.996e+09  -0.1156  -0.02501  0.1531  0.1768  -0.1962  0.08376  -0.2307  0.0531
5e+09  -0.05332  0.09991  0.316  -0.09207  0.09672  0.2065  0.171  0.2464
5.004e+09  -0.008707  0.07329  0.0625  -0.2018  0.1489  0.02693  0.2675  0.05383
