# Hz S RI R 50
4e+09  -0.3658  -1.135  3.176  1.928  -1.03  1.814  -4.223  -4.006
4.004e+09  0.721  0.5667  0.02131  -0.02672  0.05068  -0.005337  -1.707  1.707
4.008e+09  0.8354  -0.4653  -0.04333  0.04819  -0.03739  0.03361  0.8038  2.259
4.012e+09  0.05917  -1.002  0.03471  0.01042  -0.004046  -0.03619  2.393  0.1718
4.016e+09  -0.8527  -0.4858  -0.0762  -0.01604  -0.01086  0.05684  1.281  -2.046
4.02e+09  -0.7726  0.6188  -0.0534  0.08975  -0.01783  0.01478  -1.368  -1.987
4.024e+09  0.1472  1.025  0.006021  0.03696  -0.03968  0.01048  -2.308  0.1954
4.028e+09  0.8864  0.3376  -0.06643  -0.08559  -0.02642  -0.006331  -0.9373  2.088
4.032e+09  0.6538  -0.6295  0.006784  0.07572  0.05867  0.03026  1.379  1.725
4.036e+09  -0.3432  -0.9255  0.0476  0.01085  -0.03797  0.0233  2.054  -0.4665
4.04e+09  -0.9141  -0.06552  -0.002754  0.06705  0.03699  0.01204  0.5991  -2.036
4.044e+09  -0.5284  0.896  0.02998  0.0689  -0.02754  -0.006134  -1.517  -1.237
4.048e+09  0.5505  0.8277  -0.01355  -0.05876  -0.02224  0.03  -1.956  0.799
4.052e+09  0.9385  -0.07757  0.1077  0.003323  0.01347  -0.06074  -0.1536  2.105
4.056e+09  0.3543  -0.8681  0.071  -0.03414  0.06597  -0.01191  1.647  1.151
4.06e+09  -0.6372  -0.6713  -0.04887  -0.004947  -0.004287  -0.008503  1.866  -1.013
4.064e+09  -0.8344  0.3067  -0.06987  -0.001785  0.007008  -0.05313  0.009996  -2.193
4.068e+09  -0.1507  0.9748  0.0422  -0.07045  0.005513  0.08179  -1.805  -0.8921
4.072e+09  0.7485  0.5863  -0.06864  -0.04234  0.00433  -0.04922  -1.586  1.371
4.076e+09  0.7957  -0.4247  -0.0218  0.05059  0.04122  0.04383  0.4252  1.99
4.08e+09  -0.009975  -0.8713  -0.01396  0.138  0.03159  -0.01446  1.894  0.5296
4.084e+09  -0.823  -0.2831  0.06885  0.02571  -0.003849  0.01666  1.395  -1.414
4.088e+09  -0.6748  0.5273  -0.01673  -0.01143  -0.00916  0.005224  -0.4927  -1.838
4.092e+09  0.2565  0.7555  -0.0611  -0.05127  -0.02646  0.04107  -1.848  -0.3003
4.096e+09  0.8254  0.07514  0.03968  0.03047  -0.07229  0.02034  -1.193  1.513
4.1e+09  0.3625  -0.6512  -0.009903  0.0006603  0.03774  0.03306  0.7695  1.815
4.104e+09  -0.4308  -0.6641  -0.03321  -0.00883  -0.03252  0.009737  1.989  0.07278
4.108e+09  -0.8491  -0.003552  0.0955  -0.05398  -0.02465  -0.02194  1.007  -1.652
4.112e+09  -0.2761  0.7086  -0.0836  -0.01519  0.03841  0.01084  -1.008  -1.678
4.116e+09  0.4393  0.5702  -0.01579  0.01617  -0.08138  -0.06514  -2.069  0.1821
4.12e+09  0.6923  -0.1193  0.0326  -0.0316  0.06822  0.0315  -0.695  1.873
4.124e+09  0.2015  -0.7316  -0.01915  0.0319  0.02929  0.003279  1.341  1.538
4.128e+09  -0.5666  -0.5406  -0.1122  0.0003933  -0.02467  -0.03439  1.948  -0.5608
4.132e+09  -0.6153  0.2743  0.05533  0.07261  -0.06654  -0.08768  0.3652  -1.957
4.136e+09  -0.06051  0.7278  0.003065  -0.03897  -0.03659  -0.02103  -1.57  -1.282
4.14e+09  0.6011  0.4127  -0.02956  -0.01319  -0.04682  -0.08293  -1.853  0.7408
4.144e+09  0.6486  -0.3748  -0.05805  -0.1215  0.0293  -0.003957  -0.06103  2.027
4.148e+09  -0.006337  -0.6818  0.06685  0.02977  -0.03168  0.04151  1.85  1.093
4.152e+09  -0.6683  -0.2731  -0.05172  0.0135  -0.03931  0.06401  1.731  -1.158
4.156e+09  -0.5097  0.4104  -0.05001  0.1031  -0.05884  0.06749  -0.2484  -2.087
4.16e+09  0.1811  0.6554  -0.04483  0.0742  -0.01296  0.01757  -2.085  -0.5749
4.164e+09  0.7064  0.1688  0.04291  -0.01948  0.01368  -0.02357  -1.578  1.571
4.168e+09  0.4883  -0.4901  -0.05901  -0.05121  -0.01821  0.05423  0.8028  1.981
4.172e+09  -0.1948  -0.6897  0.04341  -0.003767  0.007437  0.02687  2.215  0.1185
4.176e+09  -0.728  -0.1125  0.08007  0.06753  -0.04309  -0.03265  1.125  -1.964
4.18e+09  -0.3496  0.5039  0.04351  0.09896  -0.058  -0.01772  -1.182  -1.814
4.184e+09  0.3449  0.5875  0.04353  0.006453  -0.04401  0.08159  -2.269  0.3515
4.188e+09  0.6924  -0.004674  -0.04473  -0.06301  -0.01686  -0.02475  -0.6646  2.177
4.192e+09  0.2848  -0.5651  -0.02789  0.007909  0.05206  -0.0837  1.588  1.533
4.196e+09  -0.3801  -0.5286  -0.04157  -0.07486  -0.004091  0.04261  1.954  -0.8128
4.2e+09  -0.7737  0.08314  -0.1614  0.1324  -0.02645  -0.01237  -0.09081  -2.094
4.204e+09  -0.2554  0.6273  -0.01159  -0.03815  -0.02176  -0.03831  -1.793  -1.039
4.208e+09  0.5251  0.4375  -0.02066  0.0591  0.001904  0.01472  -1.596  1.322
4.212e+09  0.6944  -0.1911  0.04258  0.007342  -0.03212  0.05794  0.3924  1.966
4.216e+09  0.1512  -0.6836  0.1062  0.06925  0.0238  0.01346  1.952  0.5185
4.22e+09  -0.522  -0.3445  0.05741  0.01946  0.02054  0.02377  1.276  -1.533
4.224e+09  -0.6361  0.328  -0.0501  0.0311  0.09183  0.0008263  -0.8846  -1.835
4.228e+09  -0.01943  0.7013  0.04491  0.02027  0.02809  0.007778  -2.036  0.01165
4.232e+09  0.5266  0.2988  -0.02732  -0.146  0.02337  0.01808  -0.8685  1.717
4.236e+09  0.6254  -0.3348  0.04869  -0.0341  -0.01643  0.01893  1.201  1.517
4.24e+09  -0.1113  -0.6796  -0.1049  -0.1108  -0.02101  0.00692  1.961  -0.4275
4.244e+09  -0.6979  -0.2097  0.006772  -0.07067  0.04792  -0.06049  0.4904  -1.722
4.248e+09  -0.5619  0.5066  -0.03075  0.05569  -0.05538  0.03031  -1.4  -1.12
4.252e+09  0.2144  0.6996  0.1083  0.02929  -0.01629  -0.002538  -1.599  0.8042
4.256e+09  0.7554  0.1611  0.002325  0.07599  0.01142  0.02461  -0.1887  1.805
4.26e+09  0.4561  -0.5558  -0.01569  0.02365  -0.01771  0.02787  1.451  0.9521
4.264e+09  -0.23  -0.6841  0.04622  -0.04851  0.05305  0.04778  1.316  -0.9182
4.268e+09  -0.7744  -0.02122  -0.009997  0.007756  -0.03937  -0.0303  -0.1365  -1.634
4.272e+09  -0.3494  0.603  -0.1392  -0.06658  0.0475  -0.0918  -1.543  -0.6078
4.276e+09  0.3424  0.5754  0.02774  0.05561  -0.01195  -0.01751  -1.25  1.164
4.28e+09  0.799  -0.06168  -0.09818  -0.03592  0.002765  0.01072  0.4182  1.608
4.284e+09  0.2938  -0.7106  0.04267  0.1272  -0.05438  -0.02172  1.567  0.3675
4.288e+09  -0.5436  -0.5421  0.03203  -0.05942  0.01839  0.07671  1.048  -1.268
4.292e+09  -0.7304  0.2034  -0.01693  -0.04346  0.002287  0.05957  -0.7415  -1.518
4.296e+09  -0.175  0.6577  -0.01079  -0.04391  0.02301  -0.03523  -1.643  -0.09441
4.3e+09  0.5413  0.4067  0.04865  8.712e-05  -0.05349  0.009849  -0.7817  1.449
4.304e+09  0.6022  -0.3939  -0.08038  -0.01537  -0.03212  -0.05547  0.8196  1.327
4.308e+09  0.01544  -0.6668  0.007938  -0.06213  0.1056  0.03397  1.635  -0.05025
4.312e+09  -0.5592  -0.3165  -0.0005489  0.04025  0.06135  -0.04793  0.6917  -1.607
4.316e+09  -0.5433  0.4278  -0.05519  -0.02249  -0.03966  0.01633  -1.104  -1.249
4.32e+09  0.1021  0.6394  0.08135  0.08714  -0.01392  0.01753  -1.594  0.4265
4.324e+09  0.6938  0.238  0.07208  -0.06375  -0.01804  0.007677  -0.3191  1.579
4.328e+09  0.5169  -0.5  0.01747  0.05469  -0.01754  -0.05473  1.231  1.058
4.332e+09  -0.1556  -0.7099  0.02305  0.003253  -0.00762  -0.02121  1.552  -0.6253
4.336e+09  -0.5977  -0.1046  0.03238  -0.02321  -0.02902  -0.02784  0.2175  -1.747
4.34e+09  -0.3942  0.547  0.01874  -0.05488  -0.005299  0.009452  -1.412  -1.023
4.344e+09  0.2251  0.5864  0.05949  0.02827  -0.03726  -0.02469  -1.549  0.9119
4.348e+09  0.6384  -0.02427  -0.06596  0.01232  -0.01053  0.002644  0.1783  1.713
4.352e+09  0.302  -0.5019  0.001225  -0.0492  -0.001974  -0.003515  1.531  0.6741
4.356e+09  -0.264  -0.5534  -0.164  -0.04312  0.04055  -0.02391  1.358  -1.22
4.36e+09  -0.6075  0.1003  0.07056  0.055  0.02717  0.04241  -0.4096  -1.784
4.364e+09  -0.1399  0.6545  0.01561  0.1164  -0.02308  0.0799  -1.756  -0.3971
4.368e+09  0.4475  0.4081  0.005829  -0.006935  0.01328  0.01239  -1.129  1.347
4.372e+09  0.6201  -0.1648  0.08094  0.03588  0.002565  0.04167  0.737  1.681
4.376e+09  0.1483  -0.6578  0.03431  0.03747  0.01023  0.02156  1.874  0.08848
4.38e+09  -0.4931  -0.411  -0.01549  0.03863  0.03838  -0.03904  0.8408  -1.616
4.384e+09  -0.5906  0.2374  -0.04702  0.001775  -0.02561  -0.00835  -0.9856  -1.465
4.388e+09  -0.0159  0.5823  -0.02165  0.06722  -0.05418  -0.01523  -1.875  0.1893
4.392e+09  0.5196  0.3136  -0.05205  0.006025  0.009509  -0.0004159  -0.666  1.85
4.396e+09  0.4968  -0.304  -0.09942  0.03104  0.08119  -0.01126  1.247  1.231
4.4e+09  -0.1066  -0.5441  0.03296  -0.1368  -0.04951  0.1035  1.681  -0.5507
4.404e+09  -0.479  -0.1323  -0.08764  0.0182  0.0145  0.01854  0.3282  -1.791
4.408e+09  -0.4427  0.379  0.0716  -0.015  -0.0446  0.005401  -1.651  -1.004
4.412e+09  0.09356  0.5627  0.009178  -0.05791  -0.07152  0.05299  -1.625  0.949
4.416e+09  0.5855  0.1171  0.0454  0.09013  -0.05346  0.006953  0.1555  1.929
4.42e+09  0.3715  -0.4271  -0.01279  -0.05584  -0.09056  0.02498  1.724  0.5006
4.424e+09  -0.2476  -0.5164  0.02569  0.01233  -0.1081  0.004959  1.338  -1.296
4.428e+09  -0.5384  0.003507  0.005676  -0.015  -0.03619  -0.0192  -0.5385  -1.724
4.432e+09  -0.3287  0.4619  -0.054  -0.05309  0.1029  0.03716  -1.765  -0.3522
4.436e+09  0.3398  0.5126  -0.06962  -0.108  0.01349  -0.01137  -1.002  1.455
4.44e+09  0.5869  -0.03342  -0.045  -0.06258  -0.003483  -0.02531  0.8232  1.529
4.444e+09  0.2414  -0.4919  -0.05679  -0.01758  0.0004575  0.02665  1.667  -0.02761
4.448e+09  -0.4098  -0.4342  0.03331  0.02879  0.01342  -0.01966  0.6121  -1.507
4.452e+09  -0.5779  0.1471  -0.04055  0.08852  0.03576  -0.02362  -1.062  -1.289
4.456e+09  -0.1097  0.6029  -0.06652  0.04544  0.004619  0.03215  -1.644  0.4037
4.46e+09  0.4601  0.3928  -0.08419  -0.0007416  0.01457  0.02579  -0.3748  1.526
4.464e+09  0.5484  -0.2503  0.04559  -0.01097  0.04384  -0.08223  1.307  0.9591
4.468e+09  0.008145  -0.5765  0.004352  -0.01715  0.07428  -0.01159  1.315  -0.7024
4.472e+09  -0.5352  -0.2503  0.03063  0.08011  -0.02664  0.009718  0.09588  -1.476
4.476e+09  -0.469  0.3511  -0.04774  -0.02479  -0.06504  -0.02523  -1.306  -0.7614
4.48e+09  0.07048  0.6183  -0.0639  -0.011  0.01287  -0.01118  -1.198  0.9037
4.484e+09  0.5195  0.1686  -0.02833  -0.0348  -0.01689  -0.0005725  0.2526  1.391
4.488e+09  0.4288  -0.4274  0.05247  -0.02897  -0.004627  0.03021  1.388  0.3663
4.492e+09  -0.1955  -0.578  -0.01698  -0.06344  0.01934  0.003404  1.008  -1.023
4.496e+09  -0.556  -0.1017  -0.01497  -0.006067  -0.03546  -0.003036  -0.4821  -1.308
4.5e+09  -0.3812  0.4378  -0.2131  0.06789  -0.01768  -0.0221  -1.544  -0.0662
4.504e+09  0.2651  0.5054  -0.01877  -0.04458  -0.005775  -0.01038  -0.8206  1.095
4.508e+09  0.4969  0.02759  0.01309  -0.01291  0.04634  0.05642  0.6727  1.22
4.512e+09  0.255  -0.5368  0.01604  0.008142  0.01746  0.01395  1.303  -0.01296
4.516e+09  -0.4086  -0.4977  0.02171  -0.08242  0.01307  -0.00994  0.5146  -1.192
4.52e+09  -0.5467  0.1923  -0.02648  -0.002478  0.00344  0.01033  -0.7438  -1.036
4.524e+09  -0.1466  0.5688  -0.05826  -0.08077  -0.01916  0.01139  -1.309  0.1732
4.528e+09  0.4539  0.4428  -0.07076  -0.05706  -0.02037  -0.03091  -0.3611  1.231
4.532e+09  0.5867  -0.2525  -0.1278  0.09858  -0.04276  -0.019  0.8902  0.8983
4.536e+09  0.07237  -0.5936  0.06809  0.01415  -0.00446  0.0186  1.267  -0.4731
4.54e+09  -0.5131  -0.3309  -0.047  0.01461  0.05578  -0.05138  0.2017  -1.264
4.544e+09  -0.4962  0.3077  -0.024  0.01933  -0.01552  0.002448  -1.11  -0.6323
4.548e+09  0.05848  0.5605  0.02748  -0.01355  0.01653  0.03506  -1.071  0.7599
4.552e+09  0.5152  0.2793  0.05153  0.007513  0.02859  0.02034  0.1494  1.294
4.556e+09  0.51  -0.3103  0.05582  -0.04827  -0.04589  -0.05412  1.25  0.4483
4.56e+09  -0.1387  -0.5561  -0.02077  -0.03219  0.02246  0.04046  0.9564  -0.9291
4.564e+09  -0.6005  -0.1858  -0.03541  -0.04301  0.06713  -0.01751  -0.4102  -1.32
4.568e+09  -0.4131  0.3784  -0.005475  0.05004  -0.008118  0.01452  -1.384  -0.34
4.572e+09  0.1749  0.6083  -0.09375  0.0002044  -0.02971  -0.01812  -0.9412  0.9419
4.576e+09  0.5365  0.0702  -0.0957  0.02882  -0.02194  -0.008515  0.524  1.223
4.58e+09  0.4198  -0.4914  0.03771  0.02825  0.009547  0.03244  1.32  0.01022
4.584e+09  -0.2588  -0.4722  0.01544  -0.003059  -0.00891  0.05611  0.5995  -1.245
4.588e+09  -0.5848  -0.06483  0.05079  0.1196  0.03854  0.00369  -0.7345  -1.149
4.592e+09  -0.2825  0.4658  0.08441  -0.004372  0.01384  0.01889  -1.337  0.2284
4.596e+09  0.3428  0.4771  -0.005316  -0.001594  0.00976  0.0318  -0.3962  1.326
4.6e+09  0.6252  -0.0938  0.05649  0.002902  -0.02861  -0.06853  1.009  0.944
4.604e+09  0.2487  -0.5806  0.1197  -0.008358  -0.04254  0.0108  1.354  -0.458
4.608e+09  -0.3712  -0.4765  -0.02666  -0.1247  -0.01379  -0.007456  0.1105  -1.505
4.612e+09  -0.6103  0.1058  -0.02455  -0.01716  -0.008949  -0.01506  -1.254  -0.911
4.616e+09  -0.2268  0.5567  -0.202  0.007618  -0.0366  -0.008269  -1.405  0.7539
4.62e+09  0.5093  0.3947  -0.04184  0.05811  0.01157  0.07418  0.1072  1.484
4.624e+09  0.5584  -0.1777  -0.07552  0.03453  0.005585  0.01262  1.286  0.4667
4.628e+09  0.1084  -0.6291  0.02004  0.1001  -0.01974  -0.05269  1.004  -0.9518
4.632e+09  -0.5784  -0.4122  0.09959  0.1162  0.009688  -0.05734  -0.3061  -1.347
4.636e+09  -0.6355  0.3014  0.01946  0.1013  -0.03948  0.02991  -1.382  -0.2425
4.64e+09  -0.02823  0.6675  0.1202  -0.1268  -0.01062  -0.02461  -0.7728  1.162
4.644e+09  0.5548  0.3605  0.03342  -0.00179  0.03953  -0.02301  0.682  1.108
4.648e+09  0.5915  -0.4223  -0.02356  -0.0106  -0.02332  0.03171  1.452  -0.009937
4.652e+09  -0.08003  -0.6285  0.08232  -0.02641  0.03349  -0.001967  0.5916  -1.228
4.656e+09  -0.5966  -0.3119  0.02335  0.06507  0.007915  -0.004906  -0.8943  -1.068
4.66e+09  -0.5423  0.4545  -0.02992  0.00951  0.006761  0.01656  -1.321  0.3272
4.664e+09  0.187  0.6391  -0.04614  -0.03135  -0.0332  -0.02611  -0.3633  1.199
4.668e+09  0.6956  0.1868  -0.09078  -0.03216  0.02265  0.004562  0.9076  0.8292
4.672e+09  0.3838  -0.5207  -0.0327  -0.02592  0.01205  0.03232  1.185  -0.5311
4.676e+09  -0.2606  -0.562  -0.04318  0.0345  0.03749  -0.02715  0.1018  -1.234
4.68e+09  -0.6726  -0.1176  0.08573  -0.02964  -0.0442  0.04334  -0.9441  -0.6935
4.684e+09  -0.3894  0.6559  0.008687  0.0379  -0.03566  0.02063  -1.113  0.6347
4.688e+09  0.3963  0.6428  0.04485  0.06223  0.01197  -0.01412  0.0921  1.205
4.692e+09  0.7095  -0.1105  -0.0001504  -0.01055  0.007245  0.01458  1.153  0.5871
4.696e+09  0.2426  -0.662  0.03576  -0.02513  -0.02198  -0.004705  0.9362  -0.7269
4.7e+09  -0.4798  -0.5425  0.01719  -0.0645  0.001416  -0.01125  -0.3075  -1.166
4.704e+09  -0.6661  0.1858  -0.03522  0.02084  0.0182  0.005339  -1.118  -0.3279
4.708e+09  -0.06215  0.6891  -0.01621  -0.02476  -0.002394  -0.04723  -0.7818  0.9409
4.712e+09  0.5442  0.3697  -0.01649  0.05205  0.02944  0.0136  0.4843  1.083
4.716e+09  0.5851  -0.3366  -0.003338  0.07606  -0.0296  0.06777  1.137  0.04997
4.72e+09  -0.07602  -0.6359  -0.07068  0.01495  -0.04196  0.02333  0.6256  -0.9267
4.724e+09  -0.6117  -0.201  -0.01938  -0.03037  0.04741  -0.0164  -0.5188  -0.9205
4.728e+09  -0.5085  0.4374  -0.1048  0.007646  0.01495  -0.007371  -1.038  0.01797
4.732e+09  0.217  0.5823  -0.08024  0.005481  0.01464  0.07504  -0.4598  0.9262
4.736e+09  0.6639  0.1635  0.02749  -0.04921  -0.03708  -0.00218  0.6861  0.7809
4.74e+09  0.4117  -0.5172  -0.07851  0.01968  0.01597  -0.03906  0.9787  -0.1908
4.744e+09  -0.2246  -0.5688  -0.04235  -0.04195  -0.01766  -0.02818  0.3149  -1.045
4.748e+09  -0.5685  0.001487  -0.073  -0.04622  0.0002432  -0.02185  -0.7896  -0.7965
4.752e+09  -0.2774  0.5149  0.009672  0.03625  0.0784  -0.003136  -0.9501  0.3332
4.756e+09  0.2968  0.3986  0.04151  -0.03081  -0.04355  0.01475  -0.1267  1.16
4.76e+09  0.5751  -0.1031  0.02582  0.0298  0.00255  -0.0102  0.8544  0.6673
4.764e+09  0.162  -0.5005  0.008519  -0.0715  0.01969  -0.006818  1.079  -0.5292
4.768e+09  -0.3633  -0.3924  0.01982  -0.0473  0.05927  -0.04467  -0.02876  -1.208
4.772e+09  -0.5168  0.2509  -0.03076  -0.04765  -0.03698  0.01285  -0.9964  -0.5382
4.776e+09  -0.0387  0.5586  -0.08584  -0.02771  0.01812  -0.032  -0.8742  0.6354
4.78e+09  0.4903  0.2883  -0.07259  -0.04647  0.0149  0.0138  0.2449  1.083
4.784e+09  0.445  -0.2789  -0.09846  0.0212  0.009705  -0.03714  1.063  0.3096
4.788e+09  0.04233  -0.5366  -0.02744  -0.02872  0.0109  -0.04466  0.7841  -0.8693
4.792e+09  -0.4346  -0.2104  0.03903  0.0432  0.03626  -0.02043  -0.3613  -1.084
4.796e+09  -0.3993  0.2603  0.02587  0.02998  -0.006046  0.01595  -1.177  -0.1609
4.8e+09  0.1586  0.4677  -0.01646  0.04726  0.01926  0.013  -0.6696  0.9473
4.804e+09  0.4431  0.1308  -0.008504  -0.03962  -0.01248  0.06574  0.6408  0.9486
4.808e+09  0.3427  -0.3907  -0.03192  0.002241  -0.004781  0.02321  1.125  -0.06588
4.812e+09  -0.1925  -0.4247  -0.04849  0.02052  0.003786  0.03359  0.4124  -1.169
4.816e+09  -0.4674  -0.06293  0.03901  -0.04972  0.01304  0.05433  -0.9536  -0.8621
4.82e+09  -0.2587  0.4078  0.02247  0.055  -0.00507  0.0275  -1.129  0.454
4.824e+09  0.2411  0.4042  0.02963  0.009211  -0.0004691  -0.004986  -0.1041  1.261
4.828e+09  0.4716  0.05007  -0.000802  -0.0395  -0.003958  -0.06239  1.196  0.713
4.832e+09  0.228  -0.4368  0.01417  -0.02154  0.01427  -0.04689  1.061  -0.6818
4.836e+09  -0.2387  -0.367  0.0128  -0.006487  0.02716  0.007028  -0.08444  -1.238
4.84e+09  -0.5055  0.1244  -0.06371  0.07337  0.01567  0.02616  -1.243  -0.4777
4.844e+09  -0.1595  0.5105  -0.0482  0.0694  0.03234  -0.004039  -0.9029  0.8389
4.848e+09  0.3643  0.429  0.02191  0.03233  -0.0003747  -0.01844  0.3439  1.205
4.852e+09  0.5382  -0.136  -0.009605  0.05583  -0.03576  0.0002912  1.274  0.1856
4.856e+09  0.1422  -0.4903  0.02206  0.008563  -0.01077  -0.04183  0.6745  -0.9931
4.86e+09  -0.4465  -0.3481  -0.08773  -0.01425  -0.0002429  -0.0004085  -0.5916  -1.007
4.864e+09  -0.5489  0.217  -3.15e-05  -0.01296  -0.01349  0.02824  -1.208  0.05439
4.868e+09  -0.01197  0.6168  0.01933  0.01069  0.03344  0.007664  -0.3334  1.109
4.872e+09  0.536  0.3052  0.01794  -0.05483  -0.01082  0.06301  0.7727  0.756
4.876e+09  0.5354  -0.3787  -0.05088  -0.02637  0.07353  0.009774  1.106  -0.3103
4.88e+09  -0.006651  -0.707  0.0341  -0.02097  0.06341  -0.08989  0.1388  -1.125
4.884e+09  -0.5946  -0.314  -0.06148  0.09565  0.002566  -0.008699  -0.8424  -0.6472
4.888e+09  -0.5382  0.4293  -0.03873  -0.005695  0.02926  -0.03245  -1.019  0.4759
4.892e+09  0.1354  0.666  0.00736  0.0972  -0.001587  -0.08011  -0.0173  0.9787
4.896e+09  0.6838  0.1296  0.07091  0.03284  0.04386  0.02172  0.8802  0.5179
4.9e+09  0.4362  -0.5466  0.103  -0.07074  0.005814  0.04147  0.866  -0.5317
4.904e+09  -0.3252  -0.6774  -0.03602  0.01283  -0.01964  -0.01828  -0.1418  -0.968
4.908e+09  -0.7728  0.00387  0.0561  -0.06446  -0.006035  -0.0122  -0.8675  -0.3898
4.912e+09  -0.3927  0.6709  0.005517  0.005278  -0.01476  0.02959  -0.6161  0.5373
4.916e+09  0.4473  0.6333  -0.04005  0.08665  -0.002228  -0.02365  0.2348  0.9166
4.92e+09  0.7965  -0.08188  -0.02691  -0.011  0.0256  -0.02908  0.8782  0.2072
4.924e+09  0.2545  -0.7334  -0.05579  -0.03342  0.01315  -0.02755  0.6166  -0.6826
4.928e+09  -0.616  -0.5313  0.03946  0.003022  0.04566  -0.02121  -0.3305  -0.7866
4.932e+09  -0.7387  0.3132  0.04438  0.01292  -0.0109  -0.02403  -0.8441  -0.1293
4.936e+09  -0.05816  0.7617  0.01795  -0.09378  0.03922  0.02899  -0.481  0.7174
4.94e+09  0.6339  0.4147  0.0106  -0.1109  0.03335  0.03747  0.3857  0.7175
4.944e+09  0.6445  -0.3902  0.02037  0.06128  -0.002816  -0.02209  0.8782  -0.01019
4.948e+09  -0.04699  -0.6995  0.004839  -0.04506  -0.001303  -0.02651  0.4401  -0.6914
4.952e+09  -0.6594  -0.3273  0.08647  0.03525  -0.02998  -0.01187  -0.4769  -0.6687
4.956e+09  -0.5679  0.4951  0.06804  0.05209  0.0002283  -0.007759  -0.8452  0.1015
4.96e+09  0.1378  0.7377  0.02259  -0.07006  -0.004272  -0.05118  -0.3081  0.7723
4.964e+09  0.7  0.1164  -0.05899  -0.0002268  -0.006493  0.01113  0.5971  0.6772
4.968e+09  0.4555  -0.4957  0.04371  -0.03721  0.0048  -0.03048  0.8113  -0.1735
4.972e+09  -0.2741  -0.6168  0.02771  0.008251  0.0585  0.07439  0.2024  -0.8284
4.976e+09  -0.6755  -0.02073  -0.07557  0.002371  0.007537  -0.01166  -0.602  -0.5149
4.98e+09  -0.3119  0.5318  -0.003188  0.005469  -0.0229  -0.06595  -0.8357  0.3065
4.984e+09  0.3136  0.5095  -0.008244  0.03921  0.01828  -0.04031  -0.128  0.8571
