# Hz S RI R 50
4e+09  -2.21  2.375  0.9344  -4.114  -1.335  1.512  -1.627  -4.915
4.004e+09  0.7096  1.049  0.004167  0.01752  0.05469  0.008873  -1.817  1.855
4.008e+09  1.221  -0.2161  -0.02784  -0.06098  0.01336  -0.05607  0.8752  2.219
4.012e+09  0.4486  -1.198  0.06413  -0.00655  0.01937  0.01372  2.332  0.1674
4.016e+09  -0.92  -0.8991  0.01373  -0.04849  -0.02616  0.05581  1.285  -2.092
4.02e+09  -1.347  0.3115  0.02026  -0.01808  0.03123  -0.01388  -1.12  -1.991
4.024e+09  -0.2673  1.284  0.05704  0.01722  -0.0106  -0.04649  -2.234  0.102
4.028e+09  1.014  0.7856  0.009078  0.04194  0.05116  0.01001  -0.8272  2.123
4.032e+09  1.157  -0.6175  0.003287  0.004955  0.001744  -0.04703  1.386  1.626
4.036e+09  -0.02324  -1.425  -0.08423  0.045  0.03825  0.07976  2.075  -0.5831
4.04e+09  -1.217  -0.655  0.02799  0.1007  0.013  0.01766  0.4597  -2.095
4.044e+09  -1.116  0.8611  -0.001483  -0.04475  0.0291  0.04726  -1.632  -1.459
4.048e+09  0.2821  1.322  -0.1349  -0.08341  0.0245  -0.04337  -2.023  0.8129
4.052e+09  1.313  0.3036  0.09532  0.04011  0.02526  0.04607  -0.2326  2.009
4.056e+09  0.9175  -1.121  0.01574  0.01219  -0.01195  -0.006291  1.603  1.062
4.06e+09  -0.6136  -1.338  0.05655  -0.1003  0.007745  0.07593  1.773  -1.016
4.064e+09  -1.413  -0.1  0.005704  0.1019  -0.02889  0.03901  -0.209  -2.22
4.068e+09  -0.6123  1.219  -0.07236  -0.06013  0.01081  -0.005084  -1.803  -0.8604
4.072e+09  0.8253  1.138  -0.07623  -0.07416  0.0352  0.008357  -1.694  1.24
4.076e+09  1.416  -0.2365  0.05298  0.1015  0.05788  0.0004945  0.4566  1.96
4.08e+09  0.414  -1.399  0.05796  0.01115  0.03686  -0.008217  1.804  0.5616
4.084e+09  -1.135  -0.9574  0.05119  -0.02286  0.04103  -0.03635  1.393  -1.321
4.088e+09  -1.264  0.5298  0.04074  -0.1051  0.02518  0.04425  -0.62  -1.818
4.092e+09  -0.02513  1.443  0.04701  -0.02774  -0.06012  -0.09422  -1.95  -0.443
4.096e+09  1.242  0.6528  0.05808  0.04797  0.01011  -0.01923  -1.233  1.676
4.1e+09  1.103  -0.8679  -0.09668  0.04744  0.05269  -0.04601  0.79  1.744
4.104e+09  -0.3376  -1.283  -0.02585  0.01999  -0.02172  0.01084  1.941  0.1481
4.108e+09  -1.295  -0.321  0.03312  0.01738  0.02814  0.006551  1.046  -1.712
4.112e+09  -0.8406  0.9021  0.1067  -0.04839  -0.0384  -0.01328  -1.074  -1.651
4.116e+09  0.4575  1.126  -0.04306  -0.01114  0.0282  -0.004172  -1.983  0.2543
4.12e+09  1.257  0.05905  -0.00509  -0.07098  0.0001712  0.04353  -0.8024  1.881
4.124e+09  0.5632  -1.091  -0.002675  -0.1159  0.03971  0.08487  1.336  1.587
4.128e+09  -0.7001  -0.9714  -0.02496  -0.03305  0.02522  -0.02759  1.998  -0.5315
4.132e+09  -1.164  0.1574  -0.06202  -0.026  0.05195  -0.05383  0.4601  -1.991
4.136e+09  -0.3841  1.083  0.02418  0.002929  -0.01215  -0.006274  -1.511  -1.365
4.14e+09  0.8494  0.8177  0.05965  0.05393  -0.01821  0.01899  -1.887  0.8408
4.144e+09  1.16  -0.37  0.07322  -0.02098  0.05449  0.04194  -0.1464  2.139
4.148e+09  0.1209  -1.128  -0.07693  0.0634  -0.03387  0.05998  1.815  1.065
4.152e+09  -0.8081  -0.657  -0.04596  0.07998  -0.005295  -0.0282  1.775  -1.303
4.156e+09  -1.011  0.4519  -0.02751  -0.04151  -0.002283  -0.006412  -0.2999  -2.224
4.16e+09  -0.006415  1.067  0.02347  0.03006  0.07259  0.04802  -2.089  -0.5875
4.164e+09  1.043  0.5522  0.07077  0.01213  0.01176  -0.01872  -1.451  1.513
4.168e+09  0.8751  -0.5975  0.1044  0.03545  -0.04238  -0.0385  0.7219  1.933
4.172e+09  -0.09898  -1.089  0.04246  -0.01942  -0.01616  -0.07363  2.26  0.2129
4.176e+09  -0.9596  -0.3606  0.01408  0.08931  -0.03846  -0.02671  1.14  -1.962
4.18e+09  -0.7517  0.7425  -0.02531  0.009373  -0.01476  -0.01678  -1.268  -1.888
4.184e+09  0.3024  0.9773  -0.06715  -0.01902  0.03513  -0.07298  -2.189  0.3204
4.188e+09  0.9951  0.198  -0.03011  -0.03338  0.04543  -0.04761  -0.6719  1.986
4.192e+09  0.6274  -0.7319  0.07705  -0.006638  -0.008387  -0.01077  1.629  1.368
4.196e+09  -0.3763  -0.9998  0.0455  0.01515  0.04929  -0.02858  1.919  -0.8337
4.2e+09  -0.9665  -0.1815  0.07978  -0.1453  -0.07567  -0.06197  -0.1752  -2.124
4.204e+09  -0.6434  0.9222  -0.03277  0.000733  -0.004099  -0.01126  -1.853  -0.957
4.208e+09  0.5917  0.9151  0.03762  -0.1162  -0.05386  0.04722  -1.627  1.243
4.212e+09  0.9877  -0.04613  -0.02558  -0.03076  -0.04026  0.004593  0.4247  1.971
4.216e+09  0.4786  -1.026  0.02768  0.01631  -0.001953  -0.06624  2.002  0.5554
4.22e+09  -0.5899  -0.8731  0.08317  -0.1741  -0.04274  -0.01201  1.319  -1.548
4.224e+09  -1.052  0.204  0.09955  -0.02275  0.007797  0.02917  -0.8116  -1.677
4.228e+09  -0.2823  1.067  -0.04092  -0.05999  0.005708  -0.07737  -1.959  0.01701
4.232e+09  0.8335  0.745  -0.004545  -0.08443  -0.02734  -0.01467  -0.8895  1.776
4.236e+09  1.069  -0.4006  0.03945  0.02799  -0.01209  0.006079  1.139  1.594
4.24e+09  -0.01915  -1.136  0.0844  -0.1015  0.1627  -0.1069  1.96  -0.3041
4.244e+09  -0.9721  -0.6834  -0.06221  -0.00724  0.02101  0.01212  0.4924  -1.823
4.248e+09  -1.016  0.5996  0.04174  0.1713  -0.016  -0.02643  -1.477  -1.175
4.252e+09  0.002866  1.147  0.1473  -0.04154  0.04804  -0.001516  -1.597  0.73
4.256e+09  1.052  0.5062  0.01487  -0.07166  -0.003132  -0.04065  -0.1864  1.8
4.26e+09  0.8996  -0.7727  0.001363  0.08271  -0.009236  -0.01133  1.592  0.8676
4.264e+09  -0.2566  -1.204  -0.01152  0.04617  -0.04394  -0.01081  1.394  -0.8724
4.268e+09  -1.146  -0.3058  -0.04404  0.02332  0.04139  -0.01811  -0.1255  -1.711
4.272e+09  -0.8711  0.9836  -0.03746  0.05343  0.03349  0.04059  -1.515  -0.5506
4.276e+09  0.523  1.141  -0.008388  -0.002933  -0.002793  -0.01488  -1.236  1.11
4.28e+09  1.244  0.01649  -0.02266  -0.05261  0.03889  0.0127  0.4747  1.536
4.284e+09  0.5827  -1.071  -0.005338  0.02772  -0.0119  -0.01272  1.668  0.3396
4.288e+09  -0.7269  -1.001  0.05798  0.009336  0.01318  0.01844  1.051  -1.18
4.292e+09  -1.311  0.2405  0.03797  -0.01666  0.007974  0.01878  -0.6452  -1.539
4.296e+09  -0.3631  1.293  0.02603  -0.0871  -0.04589  0.00767  -1.615  -0.1226
4.3e+09  0.9259  0.7943  0.1235  -0.01602  -0.01632  0.01794  -0.8295  1.459
4.304e+09  1.126  -0.4821  0.009708  -0.08173  -0.0009367  -0.04285  0.814  1.358
4.308e+09  0.05224  -1.212  -0.06053  -0.03085  -0.005893  -0.01213  1.649  -0.1633
4.312e+09  -1.029  -0.6172  -0.01489  -0.03144  -0.06041  -0.0361  0.4977  -1.562
4.316e+09  -1.009  0.7036  -0.01784  0.07318  0.0366  0.02289  -1.079  -1.352
4.32e+09  0.08233  1.151  0.005621  0.02984  -0.06791  0.03598  -1.489  0.3914
4.324e+09  1.103  0.4551  0.03336  0.04828  0.02986  0.07325  -0.3272  1.656
4.328e+09  0.9028  -0.7624  -0.02811  -0.01763  -0.02176  -0.006341  1.319  1.158
4.332e+09  -0.3067  -1.161  -0.04693  -0.08325  0.03108  -0.1254  1.479  -0.6053
4.336e+09  -1.211  -0.2024  -0.008933  -0.01601  0.007026  -0.0194  0.1816  -1.774
4.34e+09  -0.8063  0.8917  -0.06404  -0.1081  0.0618  -0.01061  -1.552  -0.8749
4.344e+09  0.5053  1.062  -0.06793  0.04372  -0.01495  0.09336  -1.56  0.8724
4.348e+09  1.16  -0.04104  0.01738  0.04852  0.00262  0.04257  0.1633  1.767
4.352e+09  0.5238  -0.9672  0.02767  0.02662  0.02831  0.006039  1.683  0.7619
4.356e+09  -0.6425  -0.8578  0.04004  0.08817  0.02278  -0.008349  1.362  -1.156
4.36e+09  -1.014  0.1842  0.01968  -0.05327  0.02763  0.01628  -0.4581  -1.758
4.364e+09  -0.2489  1.068  0.09069  -0.05736  0.01743  -0.0195  -1.798  -0.3886
4.368e+09  0.7644  0.7029  0.005296  -0.04507  -0.02092  -0.03651  -1.171  1.435
4.372e+09  0.9165  -0.3804  0.004171  0.01826  0.07193  -0.0192  0.7045  1.645
4.376e+09  0.1624  -0.9698  0.0377  -0.09419  0.0475  0.01874  1.764  0.09685
4.38e+09  -0.8138  -0.5989  -0.06662  -0.1351  0.004459  -0.01253  0.8835  -1.574
4.384e+09  -0.8576  0.5421  -0.005343  0.00658  -0.02921  -0.02718  -1.002  -1.59
4.388e+09  -0.009656  1.003  -0.1112  -0.04865  0.005976  0.001647  -1.83  0.3394
4.392e+09  0.8741  0.427  0.04978  0.02619  0.02477  0.05547  -0.6316  1.803
4.396e+09  0.7796  -0.5647  0.03805  -0.04446  -0.01871  -0.008745  1.313  1.315
4.4e+09  -0.2608  -0.8873  -0.1688  -0.1203  -0.04703  0.1352  1.666  -0.6129
4.404e+09  -0.9359  -0.3068  0.09257  0.01118  0.01476  0.03097  0.2629  -1.826
4.408e+09  -0.647  0.7485  0.02043  0.04276  -0.07996  -0.01056  -1.531  -1.073
4.412e+09  0.3486  0.8096  -0.03515  -0.03938  0.01108  -0.008298  -1.594  0.9772
4.416e+09  0.9569  0.09971  0.01341  0.05484  -0.02541  -0.008596  0.1314  1.89
4.42e+09  0.4661  -0.791  0.01643  0.007909  0.01221  0.01278  1.658  0.5933
4.424e+09  -0.5018  -0.8674  0.02301  -0.02345  -0.00179  0.04968  1.348  -1.281
4.428e+09  -0.972  0.05092  0.05794  0.03285  0.0122  0.05055  -0.5296  -1.723
4.432e+09  -0.3427  0.8358  0.004148  0.03296  -0.0001225  0.004007  -1.85  -0.2757
4.436e+09  0.5234  0.7321  -0.06619  -0.01391  -0.01444  0.03363  -1.005  1.447
4.44e+09  0.9588  -0.1334  -0.08191  -0.03562  0.01023  0.005325  0.751  1.608
4.444e+09  0.2188  -0.8475  0.04903  0.04931  -0.005819  0.04164  1.653  -0.05811
4.448e+09  -0.6535  -0.6132  0.01424  0.0643  -0.049  -0.005076  0.7009  -1.536
4.452e+09  -0.8523  0.3116  0.03958  -0.008745  0.06423  -0.02541  -1.05  -1.287
4.456e+09  -0.1288  0.9417  0.05046  0.09694  -0.04234  0.04354  -1.603  0.3525
4.46e+09  0.8436  0.4946  0.1264  0.03029  0.004327  -0.001221  -0.2884  1.595
4.464e+09  0.7854  -0.4445  -0.02081  -0.09446  -0.01299  -0.05171  1.308  1.092
4.468e+09  0.01402  -0.9297  0.09619  0.008683  0.01083  -0.02659  1.473  -0.6561
4.472e+09  -0.9199  -0.3456  -0.08658  -0.03729  -0.04088  -0.006387  0.02342  -1.515
4.476e+09  -0.6888  0.6498  -0.05223  -0.0632  0.002359  0.03691  -1.294  -0.6932
4.48e+09  0.2742  0.946  0.01357  -0.006817  0.06513  -0.01982  -1.132  0.8334
4.484e+09  0.9684  0.1608  0.00936  0.01142  0.05828  0.03718  0.1834  1.438
4.488e+09  0.5569  -0.7498  0.01025  -0.1024  -0.03661  -0.02064  1.412  0.4768
4.492e+09  -0.4324  -0.8773  -0.0353  -0.04357  0.01211  0.01335  0.9769  -0.9847
4.496e+09  -0.937  -0.02921  0.07083  -0.03658  -0.04691  -0.04701  -0.4768  -1.301
4.5e+09  -0.5432  0.8242  0.1474  -0.03155  0.03039  0.08088  -1.489  -0.3829
4.504e+09  0.5247  0.7127  0.006221  0.04035  -0.01047  -0.008042  -0.7394  1.11
4.508e+09  0.9144  -0.1186  -0.06356  -0.07594  -0.01738  0.02856  0.6224  1.158
4.512e+09  0.2204  -0.8339  0.003958  0.02489  0.02871  0.004759  1.264  -0.1011
4.516e+09  -0.6122  -0.6412  -0.06745  0.007688  -0.0183  -0.0784  0.5768  -1.235
4.52e+09  -0.8339  0.3172  -0.05207  -0.0346  0.001011  -0.03956  -0.7899  -1.122
4.524e+09  -0.1196  0.8773  -0.07013  0.002047  -0.01477  0.001723  -1.39  0.2817
4.528e+09  0.7082  0.4923  -0.02945  0.05252  0.000716  0.07449  -0.3326  1.385
4.532e+09  0.7027  -0.4064  0.05216  0.07017  0.01052  0.08356  1.032  0.9133
4.536e+09  -0.03674  -0.8789  0.01805  0.08082  -0.01609  -0.01651  1.204  -0.4591
4.54e+09  -0.7757  -0.3249  -0.03685  0.01668  0.01383  0.09578  0.1177  -1.325
4.544e+09  -0.6494  0.5526  -0.009357  0.02992  0.03659  0.02615  -1.116  -0.7548
4.548e+09  0.1677  0.8296  0.06404  -0.04366  0.04066  0.02346  -1.127  0.6412
4.552e+09  0.763  0.2497  0.009248  -0.01861  -0.0006704  0.01952  0.2491  1.207
4.556e+09  0.5692  -0.6363  0.07543  -0.03857  0.08576  0.005931  1.196  0.4348
4.56e+09  -0.2488  -0.8048  0.0534  -0.07404  -0.01754  0.0267  1.023  -0.9207
4.564e+09  -0.7826  -0.136  0.01787  -0.005612  -0.02601  0.02234  -0.361  -1.296
4.568e+09  -0.4808  0.6454  0.004497  -0.05645  -0.01566  -0.00476  -1.285  -0.3372
4.572e+09  0.3484  0.7465  -0.04065  -0.03385  0.02113  -0.05876  -0.8209  1.085
4.576e+09  0.8145  0.00695  -0.0171  0.03032  0.03167  0.01656  0.5325  1.281
4.58e+09  0.3744  -0.6614  0.04732  0.08771  -0.02133  0.03985  1.41  0.1285
4.584e+09  -0.44  -0.7032  0.01821  0.08814  0.001553  -0.03518  0.6363  -1.189
4.588e+09  -0.8283  0.05853  0.03739  0.07005  -0.0791  0.03064  -0.7681  -1.165
4.592e+09  -0.2348  0.7393  -0.01792  0.01935  0.0405  -0.05332  -1.399  0.2237
4.596e+09  0.5405  0.6521  0.07884  -0.01095  0.04831  -0.05653  -0.4168  1.394
4.6e+09  0.8333  -0.1662  0.0259  -0.049  -0.01607  -0.03122  1.081  0.9326
4.604e+09  0.1924  -0.7796  -0.01646  -0.03447  0.02863  0.0008066  1.291  -0.4426
4.608e+09  -0.5724  -0.5469  -0.06568  -0.06751  0.058  -0.05414  0.1475  -1.496
4.612e+09  -0.6996  0.3097  -0.01469  -0.01932  0.01737  -0.04494  -1.208  -0.7178
4.616e+09  -0.1071  0.8026  -0.06314  0.05208  -0.002684  -0.05595  -1.287  0.7882
4.62e+09  0.6687  0.4437  -0.0214  0.03012  0.01096  -0.01902  0.1442  1.435
4.624e+09  0.7247  -0.3705  -0.03266  0.009145  0.01613  0.01167  1.303  0.4591
4.628e+09  0.02022  -0.8177  -0.07888  0.06502  -0.06009  0.06816  1.061  -0.975
4.632e+09  -0.7636  -0.4176  0.08499  -0.01257  0.05209  0.0401  -0.3453  -1.361
4.636e+09  -0.7397  0.4688  0.152  -0.06509  -0.009635  -0.02144  -1.342  -0.2276
4.64e+09  0.1075  0.8401  0.03924  -0.1725  -0.004585  0.01092  -0.7808  1.095
4.644e+09  0.7783  0.331  -0.08567  -0.08436  -0.03363  -0.01194  0.639  1.145
4.648e+09  0.5814  -0.6076  -0.009883  -0.06827  -0.00734  0.01239  1.333  -0.07642
4.652e+09  -0.2474  -0.8695  -0.01833  -0.001837  0.0448  0.0241  0.4859  -1.193
4.656e+09  -0.8898  -0.2297  -0.06229  -0.01714  0.02719  -0.02406  -0.8578  -1.027
4.66e+09  -0.5533  0.6847  0.05722  -0.02188  0.02  0.01794  -1.267  0.3209
4.664e+09  0.3281  0.8048  -0.07139  0.07949  -0.03276  0.04215  -0.3687  1.244
4.668e+09  0.9025  0.0646  -0.02242  -0.03094  -0.007714  0.01984  0.9564  0.8651
4.672e+09  0.4322  -0.8078  0.0803  0.02154  -0.006236  -0.006967  1.249  -0.4699
4.676e+09  -0.4936  -0.7147  0.0713  0.003395  0.05042  0.0478  0.1402  -1.241
4.68e+09  -0.9361  0.1064  -0.01054  -0.05982  0.003232  0.01169  -1.033  -0.6999
4.684e+09  -0.27  0.8756  0.009746  0.005723  -0.02778  0.03183  -1.041  0.6678
4.688e+09  0.6292  0.6468  0.06963  0.06977  -0.01409  -0.006485  0.1499  1.174
4.692e+09  0.8702  -0.3029  0.01511  -0.05079  0.04316  -0.03386  1.133  0.4839
4.696e+09  0.1269  -0.8976  0.08563  -0.04766  0.05624  0.03192  0.8907  -0.8177
4.7e+09  -0.7112  -0.4803  -0.05868  -0.02717  -0.001878  -0.0432  -0.2672  -1.071
4.704e+09  -0.7435  0.4664  -0.09551  -0.007321  0.007957  0.0281  -1.101  -0.2707
4.708e+09  0.09707  0.8643  -0.05036  0.06158  -0.04979  -0.0581  -0.6561  0.8694
4.712e+09  0.8249  0.2847  -0.001175  0.05916  0.03769  0.04747  0.3524  1.146
4.716e+09  0.5958  -0.5867  0.02918  -0.004749  -0.007151  0.004351  1.119  0.01771
4.72e+09  -0.3006  -0.8129  0.01935  -0.1018  -0.037  -0.01472  0.646  -0.948
4.724e+09  -0.7609  -0.07811  0.06242  -0.01766  -0.007355  0.03327  -0.5391  -0.9452
4.728e+09  -0.3914  0.6744  0.04971  -0.06618  -0.002684  -0.03502  -1.115  0.07773
4.732e+09  0.3976  0.7317  0.07851  -0.03243  0.01509  -0.02688  -0.552  0.9827
4.736e+09  0.7939  -0.05807  -0.05945  0.019  0.005342  -0.01038  0.6506  0.8632
4.74e+09  0.2885  -0.6459  -0.02967  0.0477  0.03881  -0.01168  1.082  -0.294
4.744e+09  -0.4698  -0.5441  0.0239  0.03937  -0.03034  -0.02114  0.313  -1.067
4.748e+09  -0.6669  0.2272  0.04769  0.01692  0.01991  0.02816  -0.7471  -0.7064
4.752e+09  -0.1417  0.6795  0.07261  0.05862  0.02536  -0.03295  -1.084  0.3319
4.756e+09  0.5006  0.4143  -0.02872  0.001892  -0.02302  0.05473  -0.1834  1.087
4.76e+09  0.6162  -0.2504  0.006209  0.01185  0.02087  -0.01002  0.8997  0.7184
4.764e+09  0.0237  -0.6493  0.02158  0.005341  0.002279  -0.001711  1.015  -0.5988
4.768e+09  -0.5808  -0.3066  -0.0167  -0.03939  -0.08114  -0.006256  -0.06946  -1.208
4.772e+09  -0.4875  0.3149  0.07523  -0.008389  0.00885  -0.009891  -1.044  -0.479
4.776e+09  0.07131  0.5989  -0.0106  -0.03611  0.03338  0.05016  -0.9097  0.7395
4.78e+09  0.5672  0.2433  -0.03918  0.01384  -0.02922  0.02935  0.3194  1.227
4.784e+09  0.3972  -0.3906  -0.08829  0.03152  -0.008388  -0.02023  1.169  0.3087
4.788e+09  -0.1852  -0.5601  0.002249  0.07101  0.01449  0.003179  0.8255  -0.8239
4.792e+09  -0.5437  -0.09528  0.0243  0.01717  -0.03568  0.02298  -0.3555  -1.064
4.796e+09  -0.3492  0.421  0.06026  -0.0104  -0.0033  0.05535  -1.146  -0.1474
4.8e+09  0.2183  0.4791  -0.004272  -0.09424  0.002104  -0.0067  -0.6678  0.9679
4.804e+09  0.5471  0.02505  -0.04668  -0.05415  0.01767  0.02503  0.5994  1.087
4.808e+09  0.2533  -0.4185  -0.049  -0.01633  0.06493  -0.003108  1.212  -0.05437
4.812e+09  -0.1926  -0.4417  0.0003692  -0.001398  -0.03625  0.02721  0.3949  -1.147
4.816e+09  -0.5345  0.00483  -0.06052  0.06725  0.00303  0.01663  -0.8635  -0.8721
4.82e+09  -0.1559  0.4944  -0.01475  -0.03664  0.01885  0.06634  -1.235  0.4217
4.824e+09  0.3103  0.4332  0.03252  -0.0297  -0.01454  -0.01371  -0.1767  1.354
4.828e+09  0.5325  -0.05364  -0.02445  -0.1029  0.00128  -0.04947  1.121  0.717
4.832e+09  0.1618  -0.5362  -0.01154  -0.05315  0.02772  0.01064  1.101  -0.6647
4.836e+09  -0.4195  -0.3412  -0.06476  0.01365  0.04313  0.04818  -0.1613  -1.258
4.84e+09  -0.585  0.163  0.002526  0.03685  -0.04325  0.03458  -1.24  -0.518
4.844e+09  -0.08627  0.6142  0.08725  0.04868  0.008333  0.02245  -0.9165  0.9121
4.848e+09  0.4957  0.3473  -0.03999  -0.0195  0.03504  -0.001085  0.3352  1.202
4.852e+09  0.5945  -0.2139  -0.05806  0.04103  0.004043  -0.002963  1.231  0.2274
4.856e+09  -0.01895  -0.6418  0.04429  -0.04167  0.01921  -0.007034  0.664  -0.9724
4.86e+09  -0.6098  -0.3161  -0.05336  0.03198  -0.0166  -0.01144  -0.6292  -1.044
4.864e+09  -0.5608  0.3569  -0.0191  -0.06434  -0.03846  0.004193  -1.169  0.02253
4.868e+09  0.03932  0.7278  -0.06923  -0.06622  0.07793  -0.002223  -0.4945  1.103
4.872e+09  0.6742  0.3174  0.0296  -0.00707  0.02206  0.0004876  0.8199  0.8537
4.876e+09  0.5719  -0.481  -0.1306  -0.01117  0.04494  0.02782  1.136  -0.3403
4.88e+09  -0.1509  -0.7594  -0.05817  0.03365  0.00879  -0.1028  0.267  -1.128
4.884e+09  -0.6979  -0.1508  -0.05744  0.03863  -0.02264  -0.03318  -0.9734  -0.6039
4.888e+09  -0.4838  0.592  -0.0302  0.004737  -0.06801  0.02172  -0.9826  0.5389
4.892e+09  0.2289  0.7137  0.05256  -0.01793  -0.03463  -0.009033  0.05088  1.079
4.896e+09  0.7966  0.04345  -0.0395  -0.004177  -0.02476  0.01928  0.9158  0.4942
4.9e+09  0.4662  -0.7035  0.003136  -0.002582  -0.005856  -0.0005302  0.7734  -0.5326
4.904e+09  -0.4365  -0.7025  0.03997  0.03636  0.008052  0.03239  -0.097  -0.9592
4.908e+09  -0.8473  0.08869  -0.1004  -0.04937  0.009163  -0.03278  -0.9409  -0.3015
4.912e+09  -0.2517  0.8234  -0.05392  0.004343  0.0509  -0.04124  -0.6764  0.5741
4.916e+09  0.6524  0.6125  -0.06237  -0.04267  -0.01768  -0.04868  0.2103  0.7892
4.92e+09  0.8481  -0.2781  -0.0594  -0.002331  -0.01464  -0.04044  0.8836  0.2199
4.924e+09  0.07196  -0.8647  -0.05418  0.0206  0.01662  0.02412  0.5973  -0.717
4.928e+09  -0.6753  -0.4658  0.02499  0.02031  -0.037  -0.004022  -0.2961  -0.7643
4.932e+09  -0.7364  0.4703  -0.02251  -0.1112  -0.0247  0.01355  -0.8253  -0.04102
4.936e+09  0.1255  0.8192  0.03444  0.08796  -0.002556  0.02958  -0.4697  0.6565
4.94e+09  0.7797  0.31  -0.006516  -0.03099  -0.007031  -0.08807  0.377  0.7108
4.944e+09  0.625  -0.5211  -0.05871  -0.03076  0.04089  0.02283  0.7833  -0.03714
4.948e+09  -0.1591  -0.796  -0.00955  -0.0485  0.04703  0.003426  0.3757  -0.7527
4.952e+09  -0.7862  -0.1459  0.04001  0.05393  0.01351  0.01335  -0.4828  -0.7389
4.956e+09  -0.4807  0.5836  -0.0165  -0.06904  -0.0103  0.0374  -0.844  0.08439
4.96e+09  0.293  0.6864  -0.009393  0.03795  0.02321  -0.03722  -0.2748  0.7738
4.964e+09  0.7652  -0.007726  -0.06043  -0.0326  -0.01547  0.003639  0.5633  0.6176
4.968e+09  0.3364  -0.6614  -0.03838  0.02692  -0.02517  0.005047  0.7977  -0.1935
4.972e+09  -0.3615  -0.5287  0.006247  0.01735  0.02109  0.02311  0.1403  -0.8583
4.976e+09  -0.6173  0.06991  -0.1038  -0.05378  -0.01004  0.02226  -0.5763  -0.4909
4.98e+09  -0.2056  0.5763  -0.05493  0.03255  0.005185  -0.0354  -0.7879  0.3244
4.984e+09  0.4027  0.4547  -0.04194  -0.0324  -0.08007  -0.02259  -0.06635  0.9066
4.988e+09  0.6149  -0.14  0.03293  0.04563  -0.03067  -0.009364  0.6253  0.4834
