# Hz S RI R 50
4e+09  0.6238  1.201  -0.3779  0.5019  1.412  0.8567  -0.1938  1.05
4.004e+09  -0.3817  0.08203  0.06765  0.06543  -0.0009422  0.05355  -0.3622  0.3224
4.008e+09  -0.06884  0.3471  -0.04461  -0.03867  0.04712  -0.03877  0.03664  0.4425
4.012e+09  0.3155  0.2009  -0.0642  -0.08817  -0.01101  -0.03435  0.4809  0.1619
4.016e+09  0.3385  -0.08696  0.08903  0.01532  -0.01851  0.12  0.2517  -0.3328
4.02e+09  0.04737  -0.3566  -0.02581  0.02682  0.07565  0.02131  -0.1883  -0.4462
4.024e+09  -0.2505  -0.1963  -0.0735  0.1024  0.01355  -0.04496  -0.4774  -0.1338
4.028e+09  -0.2894  0.06921  0.05407  0.06238  -0.04943  0.03571  -0.2642  0.4358
4.032e+09  0.05111  0.3149  -0.01996  0.02598  -0.06489  -0.0198  0.3148  0.536
4.036e+09  0.3156  0.217  0.0003431  -0.01223  0.01847  -0.004475  0.4618  -0.01674
4.04e+09  0.2547  -0.2315  0.08078  0.0224  -0.01067  -0.01851  0.2449  -0.495
4.044e+09  -0.06457  -0.3358  -0.03736  0.01776  -0.06397  0.04483  -0.192  -0.3729
4.048e+09  -0.3339  -0.1142  0.04421  -0.04429  -0.007761  -0.0415  -0.4824  0.03772
4.052e+09  -0.2215  0.2309  -0.02747  -0.0438  -0.03164  0.04543  -0.1887  0.4806
4.056e+09  0.1233  0.2961  -0.05266  -0.02424  0.0009476  0.004056  0.3699  0.3344
4.06e+09  0.251  0.09466  0.023  0.002285  0.03435  0.02698  0.3458  -0.135
4.064e+09  0.2187  -0.184  0.06463  0.03083  0.03039  -0.001625  0.1226  -0.427
4.068e+09  -0.1454  -0.2499  0.0996  0.03118  -0.05642  -0.08618  -0.3003  -0.3571
4.072e+09  -0.3079  -0.07262  -0.006037  -0.02885  -0.002795  0.01421  -0.4817  0.279
4.076e+09  -0.2384  0.3393  -0.09255  0.02462  -0.03647  0.006488  0.01435  0.4837
4.08e+09  0.06383  0.3738  -0.04445  -0.02584  -0.03012  -3.704e-05  0.327  0.2196
4.084e+09  0.2657  0.03819  0.02774  0.09073  -0.02023  0.02994  0.4226  -0.2898
4.088e+09  0.1403  -0.2709  -0.01998  -0.04398  -0.0117  0.04282  0.01721  -0.6079
4.092e+09  -0.2517  -0.205  0.1122  -0.007681  -0.009988  0.006075  -0.4424  -0.2504
4.096e+09  -0.402  0.04843  -0.04719  0.06101  -0.03439  0.04887  -0.4134  0.285
4.1e+09  -0.1059  0.3129  -0.09346  -0.04817  0.04422  0.06008  0.05644  0.6131
4.104e+09  0.3012  0.2787  0.1006  0.06888  -0.001871  -0.08039  0.4131  0.1946
4.108e+09  0.3162  -0.1781  0.03636  -0.006174  0.01867  0.06227  0.3797  -0.2678
4.112e+09  -0.04056  -0.3616  -0.007752  0.09619  0.03996  -0.02855  -0.09205  -0.4629
4.116e+09  -0.3426  -0.1312  0.009077  -0.05013  0.02261  0.02569  -0.4  -0.08229
4.12e+09  -0.3347  0.1587  0.0928  -0.04579  -0.01827  0.0535  -0.363  0.3655
4.124e+09  0.001313  0.3495  -0.08249  -0.04982  0.01671  -0.01458  0.119  0.3715
4.128e+09  0.3211  0.1633  0.0108  0.007997  0.04475  -0.02647  0.5238  -0.07264
4.132e+09  0.2238  -0.264  -0.07568  0.02509  -0.01946  0.03053  0.1739  -0.3215
4.136e+09  -0.02102  -0.3331  0.01966  0.07963  0.00982  0.004852  -0.286  -0.4842
4.14e+09  -0.3655  -0.1323  -0.0002404  0.04307  0.02327  0.03669  -0.4835  0.1843
4.144e+09  -0.2959  0.263  0.02573  0.0258  -0.02197  0.08284  -0.179  0.4631
4.148e+09  0.0721  0.2458  -0.02055  -0.07466  0.003338  -0.03976  0.2852  0.4257
4.152e+09  0.3664  0.08252  -0.05662  -0.04485  0.02421  0.07635  0.5174  -0.06101
4.156e+09  0.1738  -0.2725  -0.06796  -0.03889  0.005328  0.01893  0.1804  -0.4017
4.16e+09  -0.1628  -0.2876  0.08626  0.1137  -0.02103  -0.008334  -0.3058  -0.3409
4.164e+09  -0.3798  0.03444  -0.0184  -0.05511  0.003918  -0.01557  -0.4906  0.08639
4.168e+09  -0.08812  0.2853  -0.05745  0.03128  0.01506  -0.000203  -0.133  0.438
4.172e+09  0.1691  0.2353  -0.005721  0.07605  0.005591  0.01432  0.2789  0.2333
4.176e+09  0.3085  -0.09383  -0.07246  0.09179  0.01718  -0.02483  0.3336  -0.1298
4.18e+09  0.05842  -0.3375  0.02011  -0.01462  -0.03229  0.007046  0.002397  -0.456
4.184e+09  -0.2511  -0.2181  0.01875  -0.109  0.03851  0.03282  -0.4902  -0.2034
4.188e+09  -0.2705  0.1343  0.07757  0.03187  0.04402  -0.04019  -0.2844  0.104
4.192e+09  0.02544  0.2937  -0.06237  -0.1055  -0.05747  -0.0623  0.1797  0.354
4.196e+09  0.2554  0.1184  -0.1243  0.0162  -0.008687  0.07127  0.3139  0.003021
4.2e+09  0.214  -0.1731  0.1064  -0.006891  0.00679  -0.01578  0.1183  -0.2687
4.204e+09  -0.02284  -0.2911  -0.09832  0.06863  0.01064  0.08888  -0.1087  -0.3855
4.208e+09  -0.2622  -0.1487  -0.05884  -0.09019  0.008523  -0.02741  -0.3229  -0.04638
4.212e+09  -0.1905  0.1138  -0.01302  -0.02358  0.001313  -0.01461  -0.1355  0.2919
4.216e+09  0.1116  0.2644  -0.07206  -0.0963  -0.006356  0.06378  0.2053  0.2108
4.22e+09  0.3075  0.1191  -0.1369  0.01641  0.001634  -0.02128  0.2818  -0.0698
4.224e+09  0.1538  -0.1586  0.02986  0.01605  -0.0412  0.05335  0.06231  -0.2714
4.228e+09  -0.1091  -0.2327  0.0651  -0.0586  -0.009441  -0.03297  -0.2844  -0.1824
4.232e+09  -0.2089  -0.01566  -0.05086  0.03749  -0.04307  -0.1226  -0.3141  0.08455
4.236e+09  -0.2091  0.1485  0.02191  -0.01405  -0.02977  -0.02183  0.04689  0.2397
4.24e+09  0.1442  0.2045  0.0694  -0.2006  -0.01897  0.0246  0.1723  0.09233
4.244e+09  0.2446  -0.01857  0.004787  0.008526  -0.006344  -0.03014  0.2151  -0.2419
4.248e+09  0.06221  -0.2486  0.01626  0.01384  -0.05643  -0.01409  -0.08333  -0.3201
4.252e+09  -0.1736  -0.1553  -0.03784  0.002094  -0.03219  0.007984  -0.2747  -0.1397
4.256e+09  -0.2687  0.1098  0.08405  -0.09656  -0.001241  -0.00919  -0.1269  0.2902
4.26e+09  -0.03794  0.2259  -0.0336  0.03996  0.07479  0.002329  0.1772  0.2479
4.264e+09  0.2392  0.1779  0.04111  -0.03939  -0.03277  0.006588  0.3517  -0.06185
4.268e+09  0.2218  -0.1426  -0.0362  -0.03749  0.05244  0.01212  0.1047  -0.3298
4.272e+09  -0.08745  -0.1528  -0.08214  0.01379  -0.01842  -0.03151  -0.188  -0.2363
4.276e+09  -0.2419  -0.1327  -0.01365  -0.04397  -0.04764  -0.04315  -0.2259  -0.009952
4.28e+09  -0.1958  0.1619  0.02955  -0.09019  -0.05956  0.01546  0.02713  0.301
4.284e+09  0.0758  0.2852  -0.02979  0.002543  -0.02332  -0.01786  0.2925  0.1218
4.288e+09  0.2631  0.0782  0.02536  0.067  -0.03331  0.02118  0.237  -0.2705
4.292e+09  0.1895  -0.2179  0.01693  -0.0567  0.005276  0.01104  -0.1161  -0.3044
4.296e+09  -0.102  -0.2117  0.03574  0.03083  0.02727  0.01799  -0.3565  -0.1259
4.3e+09  -0.2639  -0.02637  0.02613  -0.09709  0.09313  0.01255  -0.3035  0.2946
4.304e+09  -0.114  0.2671  -0.01024  -0.06866  -0.04533  -0.06656  0.02812  0.234
4.308e+09  0.1339  0.1753  -0.03235  0.04496  0.0261  0.0003756  0.2816  -0.02447
4.312e+09  0.2422  -0.04726  0.04199  -0.06627  0.04347  0.08115  0.1283  -0.2387
4.316e+09  0.1117  -0.2617  0.03417  -0.06033  -0.01411  0.03156  -0.2273  -0.1574
4.32e+09  -0.213  -0.2949  0.003797  0.09636  0.01679  -0.02305  -0.4003  -0.007336
4.324e+09  -0.2825  0.04561  0.01865  0.02098  0.009407  0.005473  -0.2872  0.3871
4.328e+09  -0.03671  0.2834  -0.0792  -0.0162  0.05707  0.01165  0.2022  0.3438
4.332e+09  0.1899  0.1767  0.09064  0.03266  0.01348  0.047  0.4371  -0.09226
4.336e+09  0.2276  -0.1405  -0.02908  -0.02776  0.007213  -0.002008  0.1211  -0.4003
4.34e+09  0.0374  -0.2509  -0.02672  -0.004838  -0.03661  -0.03472  -0.3007  -0.232
4.344e+09  -0.2329  -0.1949  0.1378  0.006351  -0.0305  0.05568  -0.4068  0.2061
4.348e+09  -0.2776  0.1269  0.01031  0.1266  -0.02214  -0.04072  -0.1889  0.4201
4.352e+09  0.009745  0.3012  0.06833  -0.08005  -0.01545  0.0138  0.4384  0.2304
4.356e+09  0.2879  0.128  0.02205  -0.04214  0.00013  0.01164  0.4444  -0.2728
4.36e+09  0.1907  -0.1385  -0.05811  -0.0632  0.01233  0.01849  -0.005487  -0.3752
4.364e+09  -0.08288  -0.293  0.04165  0.0149  -0.03883  0.01041  -0.3973  -0.2677
4.368e+09  -0.3024  -0.06785  0.02006  0.03982  0.0362  0.03118  -0.3039  0.2156
4.372e+09  -0.1675  0.3241  -0.09624  -0.01725  0.03608  0.01487  0.0656  0.3827
4.376e+09  0.118  0.3238  -0.08421  0.04573  -0.08032  0.004206  0.4746  0.2191
4.38e+09  0.3364  -0.03682  0.1389  -0.00558  0.01666  0.04442  0.3207  -0.2702
4.384e+09  0.1367  -0.2153  0.04147  -0.06002  -0.08109  0.01763  -0.1407  -0.4761
4.388e+09  -0.101  -0.2781  -0.08007  -0.02946  -0.01159  0.05397  -0.4466  -0.1767
4.392e+09  -0.3105  -0.03066  0.07458  0.04398  0.004909  -0.008431  -0.4016  0.2474
4.396e+09  -0.1037  0.3444  -0.04014  0.03783  -0.04809  -0.0063  0.1752  0.4129
4.4e+09  0.2541  0.2874  -0.04144  -0.1416  0.03605  0.03007  0.4539  -0.09137
4.404e+09  0.2464  -0.1076  0.06353  0.005782  -0.008382  -0.03379  0.2809  -0.3505
4.408e+09  0.121  -0.3145  0.007487  0.0291  0.02634  -0.052  -0.2206  -0.3876
4.412e+09  -0.2014  -0.2685  0.06139  -0.01965  0.0181  -0.0288  -0.4967  -0.08995
4.416e+09  -0.3189  0.07615  0.07489  0.02895  -0.04269  0.03585  -0.2118  0.3481
4.42e+09  -0.06099  0.29  -0.02171  -0.01006  -0.04719  0.0368  0.2129  0.3938
4.424e+09  0.2136  0.1875  0.07531  0.03742  -0.0253  -0.01172  0.3956  -0.07968
4.428e+09  0.2632  -0.1632  -0.1082  0.1284  0.03574  -0.004837  0.09535  -0.3237
4.432e+09  0.08402  -0.337  -0.02087  0.02355  0.04831  -0.02245  -0.2419  -0.3439
4.436e+09  -0.252  -0.2049  0.1104  0.07364  -0.006857  0.01124  -0.3389  0.1147
4.44e+09  -0.2112  0.152  0.02628  -0.04673  0.01786  -0.0103  0.0003021  0.3979
4.444e+09  0.006573  0.3233  0.1263  -0.08198  0.02394  -0.01275  0.3507  0.2196
4.448e+09  0.2926  0.1319  -0.06582  -0.04408  0.005823  0.01685  0.2941  -0.1019
4.452e+09  0.1337  -0.2154  0.057  0.06302  0.04935  0.04046  0.03457  -0.361
4.456e+09  -0.07484  -0.266  0.005328  0.02743  -0.03321  0.0752  -0.3278  -0.2385
4.46e+09  -0.2775  -0.05444  -0.06171  -0.009679  -0.004499  -0.04709  -0.2811  0.2728
4.464e+09  -0.2069  0.275  -0.02272  -0.006698  0.02826  -0.03063  -0.01095  0.3509
4.468e+09  0.06757  0.2509  0.01368  -0.04841  0.0191  -0.03702  0.3287  0.1384
4.472e+09  0.2827  0.04437  -0.06315  0.07314  0.002662  -0.08467  0.1501  -0.2705
4.476e+09  0.1276  -0.2111  -0.003288  -0.03018  -0.03266  -0.004031  -0.07395  -0.3508
4.48e+09  -0.08089  -0.2234  0.03367  0.02026  -0.009379  -0.03117  -0.2541  -0.05547
4.484e+09  -0.3229  0.07149  0.009268  -0.04262  0.0255  -0.03307  -0.1771  0.2726
4.488e+09  -0.1587  0.2375  -0.009994  -0.01145  -0.03506  -0.04041  0.1765  0.2017
4.492e+09  0.1804  0.1925  -0.06434  -0.01765  0.03674  0.02969  0.3235  -0.06926
4.496e+09  0.2343  -0.07969  -0.03228  0.01222  0.05111  0.02349  0.2288  -0.2033
4.5e+09  0.04139  -0.2812  0.007453  -0.213  -0.02177  0.03381  -0.2627  -0.05022
4.504e+09  -0.224  -0.1374  0.04219  -0.02529  0.01367  0.005154  -0.2773  0.07888
4.508e+09  -0.2681  0.1012  0.03424  0.08397  0.008456  0.03956  -0.07316  0.3453
4.512e+09  -0.07016  0.2409  0.1109  -0.08048  -0.02791  0.041  0.1772  0.1341
4.516e+09  0.127  0.1385  0.05177  0.005162  0.006179  -0.03862  0.2811  -0.1444
4.52e+09  0.171  -0.1033  0.01944  0.03736  0.02459  0.04203  0.04132  -0.2989
4.524e+09  -0.01697  -0.188  0.01771  -0.009197  0.04362  0.02025  -0.07966  -0.09825
4.528e+09  -0.2051  -0.07555  0.009435  0.03764  -0.03103  0.0007336  -0.2051  0.1613
4.532e+09  -0.169  0.1048  -0.02136  0.05381  -0.01867  -0.05419  0.03574  0.3157
4.536e+09  0.04321  0.1683  -0.04119  -0.02349  -0.02751  0.06193  0.2738  0.1251
4.54e+09  0.181  0.03484  -0.02241  -0.003653  0.04412  -0.03008  0.1466  -0.1863
4.544e+09  0.1135  -0.1419  -0.03939  -0.08369  -0.02209  0.03423  -0.0662  -0.2028
4.548e+09  -0.05537  -0.1954  -0.02348  -0.1047  0.0378  0.02859  -0.1664  -0.08154
4.552e+09  -0.21  0.06524  0.03271  -0.006133  0.002291  -0.04764  -0.1674  0.1968
4.556e+09  -0.03559  0.132  0.01958  -0.01942  -0.03454  0.03337  0.1674  0.1651
4.56e+09  0.08552  0.05305  0.04728  -0.006655  0.01989  0.02967  0.1957  -0.0161
4.564e+09  0.1606  0.004348  -0.00592  0.07202  0.003418  -0.03841  0.07026  -0.2132
4.568e+09  0.08933  -0.2012  -0.005589  0.002262  0.003426  -0.02751  -0.1553  -0.0998
4.572e+09  -0.1117  -0.1285  -0.06656  0.117  -0.01581  0.01503  -0.1682  0.05073
4.576e+09  -0.0559  0.02238  0.007357  0.02359  -0.02132  0.01436  -0.01547  0.2007
4.58e+09  0.02968  0.1494  -0.04823  0.006406  0.02718  -0.04955  0.1616  0.1086
4.584e+09  0.158  0.1073  0.04526  -0.04469  0.00139  -0.004907  0.211  -0.1387
4.588e+09  0.1787  -0.1274  -0.02237  -0.0356  0.02756  -0.01454  -0.06081  -0.2303
4.592e+09  -0.05543  -0.1485  0.0418  -0.03702  0.03713  -0.01051  -0.2417  -0.1357
4.596e+09  -0.1273  -0.06246  0.06335  0.008333  0.01523  -0.02534  -0.2043  0.2413
4.6e+09  -0.1228  0.1273  -0.002672  -0.03381  -0.02168  0.0133  0.005266  0.2086
4.604e+09  0.05698  0.1193  0.01197  -0.02159  -0.007533  0.01963  0.1946  -0.009591
4.608e+09  0.1766  0.04301  -0.009396  -0.0352  -0.005202  0.03772  0.1305  -0.2813
4.612e+09  0.08228  -0.1827  -0.02507  -0.05111  0.04212  0.037  -0.1729  -0.2464
4.616e+09  -0.1415  -0.1915  0.006233  -0.06488  -0.01496  -0.06939  -0.1994  -0.03671
4.62e+09  -0.2176  0.0002086  0.01318  0.05834  -0.0221  -0.01801  -0.06549  0.2378
4.624e+09  -0.0832  0.1493  0.09918  0.01028  -0.04449  0.0566  0.2386  0.2887
4.628e+09  0.1681  0.1422  0.06675  0.04582  -0.02397  -0.00722  0.2307  -0.08527
4.632e+09  0.1753  -0.0434  -0.00854  0.02937  0.03897  -0.005988  0.01906  -0.3202
4.636e+09  0.0164  -0.1475  -0.001101  -0.02015  0.06182  0.03717  -0.1948  -0.1689
4.64e+09  -0.1703  -0.1056  -0.01576  -0.03287  -0.01776  -0.02996  -0.1954  0.1212
4.644e+09  -0.1585  0.1213  0.0638  0.0497  -0.02417  -0.01144  0.002381  0.3066
4.648e+09  -0.009982  0.221  -0.1278  0.07792  -0.006465  -0.009918  0.2966  0.107
4.652e+09  0.1734  0.06473  0.03744  0.0103  0.04392  0.001808  0.2832  -0.1805
4.656e+09  0.146  -0.102  0.03095  0.06955  -0.01289  -0.03296  0.003898  -0.2805
4.66e+09  -0.04135  -0.1595  0.01401  0.0408  0.02145  0.01244  -0.2923  -0.1095
4.664e+09  -0.2172  -0.06247  -0.04174  0.04178  0.01367  0.05254  -0.1857  0.3129
4.668e+09  -0.151  0.2015  -0.01161  0.03178  -0.04154  0.02402  0.0995  0.2502
4.672e+09  0.06004  0.2133  0.1265  -0.05131  0.02169  -0.0002288  0.3918  0.03661
4.676e+09  0.2037  -0.0009359  -0.06233  -0.06637  -0.02741  -0.002347  0.2113  -0.3082
4.68e+09  0.1463  -0.2262  -0.01365  -0.02632  -0.001917  -0.03812  -0.1384  -0.3196
4.684e+09  -0.1087  -0.1715  -0.01319  0.001716  0.02722  -0.03527  -0.3136  -0.03824
4.688e+09  -0.2261  -0.03919  -0.05179  0.004441  0.0258  0.02509  -0.201  0.216
4.692e+09  -0.0903  0.225  0.002231  0.08735  -0.01222  -0.0401  0.2109  0.3034
4.696e+09  0.1103  0.2256  -0.01628  0.02506  -0.01544  -0.09057  0.2795  -0.03755
4.7e+09  0.2421  0.000248  0.03475  -0.007724  0.05024  0.059  0.09003  -0.2576
4.704e+09  0.1478  -0.2371  -0.03033  0.03512  0.01232  0.008866  -0.174  -0.2058
4.708e+09  -0.1641  -0.1631  -0.02054  -0.03316  0.004221  -0.02449  -0.2922  0.0362
4.712e+09  -0.2774  0.02354  -0.0122  -0.02236  -0.0005856  -0.07404  -0.03384  0.2633
4.716e+09  -0.08257  0.2274  -0.003261  -0.01324  -0.06577  -0.03962  0.2329  0.1961
4.72e+09  0.2071  0.1785  -0.06441  0.0322  -0.004326  -0.03057  0.3182  -0.1062
4.724e+09  0.2215  -0.08192  0.07456  0.01351  0.01481  0.01099  0.02122  -0.254
4.728e+09  0.03988  -0.2664  -0.0163  0.08864  0.03786  0.005594  -0.2874  -0.1786
4.732e+09  -0.2147  -0.1545  -0.003942  0.00127  -0.008629  -0.02126  -0.2204  0.1049
4.736e+09  -0.2489  0.09251  -0.08065  0.01634  0.01431  0.001708  0.07758  0.2246
4.74e+09  -0.0205  0.2493  0.05547  0.0534  0.04637  -0.03023  0.251  0.04853
4.744e+09  0.2298  0.1204  -0.007215  0.01938  -0.05772  -0.03114  0.2856  -0.149
4.748e+09  0.273  -0.1346  -0.002596  0.009207  0.02065  -0.05068  -0.07979  -0.242
4.752e+09  -0.04075  -0.2452  -0.06312  -0.01725  0.001688  0.06795  -0.1866  -0.1167
4.756e+09  -0.2329  -0.07251  0.01612  0.03003  -0.01961  -0.0241  -0.2741  0.2999
4.76e+09  -0.2682  0.1279  0.06455  -0.02003  0.008241  0.05795  0.08728  0.1834
4.764e+09  0.02189  0.312  -0.006633  -0.0185  0.002338  0.03155  0.2541  0.05771
4.768e+09  0.2682  0.07593  -0.106  0.01482  0.04593  0.002667  0.1242  -0.2692
4.772e+09  0.1908  -0.2015  0.01376  -0.04638  0.01937  -0.003371  -0.09598  -0.2802
4.776e+09  -0.09165  -0.2802  -0.04699  -0.009502  -0.009181  -0.03133  -0.2614  -0.04638
4.78e+09  -0.2165  -0.1124  -0.03242  0.04582  -0.02152  0.01357  -0.06952  0.3111
4.784e+09  -0.1821  0.2376  0.01161  0.05412  0.0117  -0.03146  0.1303  0.1268
4.788e+09  0.0717  0.2893  0.02429  0.05728  -0.04039  -0.01975  0.204  -0.06464
4.792e+09  0.2694  0.02718  0.05561  0.0764  -0.0002831  0.03754  0.0219  -0.1713
4.796e+09  0.1931  -0.2255  0.006258  0.101  0.007084  0.01992  -0.1276  -0.1605
4.8e+09  -0.1372  -0.2425  -0.01235  -0.1102  0.01292  0.008378  -0.1087  0.1543
4.804e+09  -0.2987  -0.01414  0.04855  -0.09197  0.06343  -0.0369  -0.04717  0.2536
4.808e+09  -0.152  0.1902  0.03073  -0.05998  0.01138  0.03483  0.1936  0.1053
4.812e+09  0.1259  0.2699  0.007327  0.0158  -0.01597  0.003812  0.2077  -0.189
4.816e+09  0.2128  -0.02706  0.02686  0.001151  -0.02794  -0.01593  -0.103  -0.2166
4.82e+09  0.1198  -0.1641  0.07436  0.003536  0.02718  0.006965  -0.2503  -0.03069
4.824e+09  -0.1364  -0.2415  0.02709  -0.02064  0.02077  -0.04345  -0.195  0.1501
4.828e+09  -0.2366  0.0083  -0.02991  -0.02753  0.01202  0.009501  0.1537  0.2419
4.832e+09  -0.03702  0.235  -0.02859  0.06115  -0.02615  -0.06623  0.2343  0.07035
4.836e+09  0.1083  0.1236  0.06612  0.01225  0.005551  -0.04755  0.144  -0.1917
4.84e+09  0.204  0.0185  0.01751  0.03344  -0.08295  0.05646  -0.05998  -0.1856
4.844e+09  0.05331  -0.2139  -0.02215  -0.05918  -0.05496  0.006571  -0.2541  0.05052
4.848e+09  -0.09483  -0.07525  -0.02383  0.01018  0.01561  0.01665  -0.08671  0.1804
4.852e+09  -0.1552  0.1046  -0.005042  0.01102  0.01689  0.007955  0.2109  0.2093
4.856e+09  -0.001643  0.1725  0.04666  0.01929  -0.03594  -0.01043  0.2323  -0.03125
4.86e+09  0.0893  0.09022  0.08681  0.04094  0.03045  0.02384  0.07491  -0.2623
4.864e+09  0.1276  -0.1295  0.06969  0.007902  0.01403  -0.06391  -0.1275  -0.135
4.868e+09  0.02983  -0.1434  0.04553  0.03889  0.00288  0.052  -0.148  0.05285
4.872e+09  -0.1374  -0.05948  -0.03427  0.05031  0.09365  0.006636  -0.02804  0.1976
4.876e+09  -0.1256  0.1207  -0.0011  -0.03903  -0.0004248  -0.02655  0.181  0.04823
4.88e+09  0.07059  0.09192  0.03356  0.02336  -0.04036  -0.03117  0.1637  -0.09819
4.884e+09  0.1429  0.06935  0.03462  -0.02394  -0.006378  -0.01666  -0.1024  -0.2655
4.888e+09  0.0535  -0.03975  0.009115  -0.04474  0.000602  -0.0134  -0.2299  -0.03166
4.892e+09  -0.08611  -0.1328  -0.01336  0.02539  0.002545  0.03943  -0.1883  0.1179
4.896e+09  -0.1119  -0.02853  0.0242  -0.01859  -0.02622  0.02156  0.1395  0.2384
4.9e+09  -0.02728  0.09505  -0.01629  0.02545  -0.04644  0.01294  0.2356  0.03994
4.904e+09  0.07229  0.07166  -0.03679  -0.03291  -0.00568  -0.06321  0.1498  -0.1942
4.908e+09  0.1398  -0.04639  0.04427  0.03076  0.03  0.007511  -0.1238  -0.1631
4.912e+09  0.03419  -0.1518  0.01151  0.004195  -0.01463  -0.0004146  -0.17  -0.03051
4.916e+09  -0.05963  -0.0452  0.03101  0.06493  -0.00438  0.002595  -0.1535  0.1526
4.92e+09  -0.1263  0.06607  0.02237  0.01603  -0.02848  -0.01753  0.1638  0.1005
4.924e+09  -0.007491  0.06719  -0.02725  0.0007591  0.01841  0.007351  0.2226  -0.05147
4.928e+09  0.0829  0.05134  0.03967  0.03755  0.03616  0.006862  0.1524  -0.1899
4.932e+09  0.05044  -0.05766  -0.03305  -0.03231  -0.0124  -0.03653  -0.1788  -0.1219
4.936e+09  -0.0724  -0.07985  -0.0005536  0.08776  0.02834  0.05794  -0.2162  0.05013
4.94e+09  -0.104  -0.02533  0.02379  0.007865  -0.01961  0.02057  0.007997  0.2099
4.944e+09  -0.1082  0.1486  0.04105  0.04021  -0.0185  0.08221  0.2174  0.2009
4.948e+09  0.08959  0.1154  0.02503  -0.05317  0.006174  -0.003764  0.2005  -0.04597
4.952e+09  0.1048  0.0003127  0.01306  -0.02471  -0.03953  -0.004591  -0.03527  -0.2073
4.956e+09  0.08056  -0.12  0.00693  -0.03989  0.0308  -0.000118  -0.2198  -0.04841
4.96e+09  -0.105  -0.05826  -0.05361  0.006778  -0.008953  -0.02341  -0.2039  0.1079
4.964e+09  -0.1055  0.01952  -0.02341  0.007804  -0.008853  0.006309  0.05158  0.1887
