# Hz S RI R 50
4e+09  -2.36  -2.3  7.239  3.956  -0.4452  1.683  -4.811  -6.044
4.004e+09  -1.066  0.8047  0.0865  -0.005536  -0.01003  -0.01355  -1.109  1.84
4.008e+09  0.2262  1.324  0.07687  -0.04771  0.02457  -0.02015  1.202  1.94
4.012e+09  1.256  0.3704  -0.02811  -0.0523  -0.01705  0.02605  2.152  -0.3927
4.016e+09  0.9513  -0.8958  -0.09603  0.03569  0.007197  0.05358  0.678  -1.929
4.02e+09  -0.3603  -1.289  -0.0387  0.09805  0.1057  -0.02426  -1.457  -1.504
4.024e+09  -1.275  -0.3082  -0.1311  0.001396  0.02203  -0.01223  -1.985  0.6466
4.028e+09  -0.8579  1.057  0.06409  -0.0308  0.04655  -0.01154  -0.4354  1.897
4.032e+09  0.4403  1.24  0.09894  -0.02703  -0.01901  -0.01184  1.651  1.347
4.036e+09  1.335  0.148  0.04443  0.08236  0.04122  0.01787  1.909  -0.9088
4.04e+09  0.6894  -1.159  0.07783  -0.0251  -0.01298  -0.04007  0.1821  -1.937
4.044e+09  -0.678  -1.219  -0.03393  -0.1676  0.008846  0.03094  -1.596  -1.14
4.048e+09  -1.286  0.07994  -0.009107  -0.01666  0.032  0.005517  -1.68  1.02
4.052e+09  -0.5199  1.108  -0.06859  0.02811  0.05248  0.04059  0.1208  1.891
4.056e+09  0.7703  1.03  -0.1118  0.1157  0.03898  -0.03155  1.716  0.7286
4.06e+09  1.223  -0.277  -0.03442  0.01426  -0.02092  -0.01899  1.456  -1.177
4.064e+09  0.3511  -1.247  0.04674  0.05321  0.04764  -0.1041  -0.4016  -1.774
4.068e+09  -0.8583  -0.9723  0.02539  -0.07088  0.02482  0.01879  -1.827  -0.35
4.072e+09  -1.345  0.3803  0.09055  -0.03708  -0.0316  -0.02535  -1.344  1.366
4.076e+09  -0.3172  1.382  0.01629  0.004187  -0.06231  -0.01536  0.6379  1.761
4.08e+09  1.039  0.7884  -0.01721  -0.02229  -0.02065  -0.07358  1.893  0.1296
4.084e+09  1.202  -0.6328  -0.09695  -0.0139  0.03547  -0.04622  1.012  -1.558
4.088e+09  0.05581  -1.5  -0.03211  0.01307  0.02888  0.00466  -0.7926  -1.689
4.092e+09  -1.324  -0.7349  0.04135  -0.01378  0.006549  0.03485  -1.822  0.1082
4.096e+09  -1.21  0.8898  -0.01473  -0.08671  0.008514  0.04077  -0.868  1.609
4.1e+09  0.3399  1.525  0.06912  0.00988  0.02952  0.008635  1.025  1.443
4.104e+09  1.47  0.4173  0.09822  0.05899  0.009051  0.0171  1.804  -0.1359
4.108e+09  1.032  -1.096  0.05178  0.002606  -0.05509  -0.01736  0.6714  -1.824
4.112e+09  -0.5602  -1.434  -0.04113  -0.02632  0.03081  -0.05183  -1.251  -1.287
4.116e+09  -1.467  -0.1101  0.1234  0.03766  -0.0241  0.03485  -1.776  0.6154
4.12e+09  -0.7702  1.356  0.07971  -0.2013  -0.03833  0.02717  -0.1993  1.784
4.124e+09  0.7586  1.298  -0.05116  -0.03291  0.06302  0.03468  1.512  1.168
4.128e+09  1.536  -0.1598  -0.06193  0.1015  -0.01824  -0.1086  1.571  -0.8541
4.132e+09  0.5274  -1.453  -0.105  0.1401  0.02094  -0.03582  0.02066  -1.894
4.136e+09  -1.145  -1.142  0.08619  0.0907  0.03541  0.01004  -1.745  -0.8128
4.14e+09  -1.556  0.3882  0.07593  -0.03764  -0.02889  0.02286  -1.533  1.274
4.144e+09  -0.221  1.606  -0.01433  -0.01228  0.004698  0.04489  0.3449  1.866
4.148e+09  1.305  0.9233  0.003718  0.009403  0.07101  0.002971  1.95  0.5365
4.152e+09  1.352  -0.7817  -0.03791  0.1329  -0.03623  -0.02048  1.319  -1.537
4.156e+09  -0.1501  -1.575  -0.02376  -0.06519  0.02911  0.02156  -0.7669  -1.859
4.16e+09  -1.464  -0.5438  -0.04939  0.02417  0.009706  -0.02975  -2.13  -0.09871
4.164e+09  -1.095  0.9638  0.0391  -0.00397  -0.06312  -0.06623  -1.026  1.6
4.168e+09  0.4091  1.373  0.004663  0.07772  0.03335  -0.02792  1.087  1.748
4.172e+09  1.412  0.1615  0.01411  0.1423  0.03245  0.03242  1.884  -0.2576
4.176e+09  0.7911  -1.2  -0.004951  0.1068  -0.001855  -0.01406  0.6092  -1.829
4.18e+09  -0.6683  -1.167  0.05678  -0.08119  0.01844  -0.02859  -1.318  -1.363
4.184e+09  -1.369  0.05686  0.008657  -0.02007  -0.01436  -0.01121  -1.735  0.7337
4.188e+09  -0.549  1.183  0.03166  0.007261  0.07516  -0.04158  -0.1014  1.851
4.192e+09  0.7808  1.027  -0.06354  0.01188  0.07994  0.009685  1.567  0.7626
4.196e+09  1.269  -0.2074  -0.1644  -0.02362  0.01866  -0.08265  1.529  -1.139
4.2e+09  0.3651  -1.117  -0.1659  -0.2413  -0.04142  -0.1196  -0.245  -1.591
4.204e+09  -0.8968  -0.8372  0.02173  0.001065  -0.02133  -0.02897  -1.862  -0.4418
4.208e+09  -1.147  0.3726  -0.0455  0.03452  -0.01199  -0.05851  -1.117  1.458
4.212e+09  -0.1046  1.222  0.1827  -0.07423  -0.0249  -0.006647  0.8428  1.66
4.216e+09  1.068  0.6304  0.05769  -0.06876  0.02545  0.07729  1.918  -0.009381
4.22e+09  0.999  -0.5999  -0.04305  0.08809  -0.00686  0.04777  0.8184  -1.61
4.224e+09  -0.02654  -1.22  0.02863  0.03331  -0.05784  0.01634  -1.016  -1.449
4.228e+09  -1.102  -0.4395  -0.03974  0.03783  -0.002518  0.05246  -1.716  0.371
4.232e+09  -0.9126  0.7631  -0.03548  0.05995  0.02449  -0.08612  -0.4428  1.687
4.236e+09  0.2659  1.084  -0.1642  -0.02013  0.08753  0.01805  1.294  1.045
4.24e+09  1.016  0.1718  0.2716  0.005646  -0.055  -0.01327  1.674  -0.7172
4.244e+09  0.7834  -0.8487  0.03467  0.005882  -0.02857  0.01254  0.09273  -1.744
4.248e+09  -0.3548  -1.117  -0.004952  -0.2539  -0.008885  0.06696  -1.388  -0.7516
4.252e+09  -1.078  -0.1813  -0.004619  0.0734  -0.03691  -0.006414  -1.336  0.8866
4.256e+09  -0.7136  0.9472  0.08523  0.03444  0.08157  0.02917  0.1996  1.629
4.26e+09  0.4535  0.9925  0.01227  -0.006109  0.02407  0.003888  1.461  0.5265
4.264e+09  1.066  -0.04889  -0.07191  0.08314  -0.04918  -0.02622  1.01  -1.069
4.268e+09  0.4855  -1.01  -0.04205  0.03324  -0.04962  -0.01441  -0.359  -1.431
4.272e+09  -0.6482  -0.9594  0.1239  -0.01282  0.02372  0.02612  -1.53  -0.2268
4.276e+09  -1.139  0.08383  0.01939  -0.02881  -0.06793  0.01057  -1.006  1.209
4.28e+09  -0.3943  1.097  0.069  0.03459  0.04918  0.01749  0.7333  1.338
4.284e+09  0.7491  0.7963  -0.07824  -0.05334  -0.000602  0.05079  1.569  -0.0457
4.288e+09  1.065  -0.3129  0.005698  0.004346  0.01547  -0.02542  0.7273  -1.354
4.292e+09  0.2414  -1.129  0.09564  0.001184  -0.03248  0.05956  -0.8741  -1.23
4.296e+09  -0.9011  -0.7038  0.01587  -0.03082  0.0003154  -0.01615  -1.536  0.2001
4.3e+09  -1.074  0.4717  0.1102  -0.09775  -0.01929  0.0278  -0.4013  1.43
4.304e+09  -0.04862  1.144  -0.02954  -0.1086  -0.0332  -0.01004  0.9958  1.11
4.308e+09  1.006  0.5686  0.02013  0.01753  -0.02375  -0.02836  1.489  -0.506
4.312e+09  0.9916  -0.6298  0.002888  0.0315  -0.02461  -0.01411  0.2791  -1.554
4.316e+09  -0.02795  -1.194  -0.1297  -0.03724  0.00807  -0.01344  -1.153  -0.9737
4.32e+09  -1.086  -0.4471  0.01514  -0.1563  -0.008239  0.0235  -1.386  0.5775
4.324e+09  -0.9274  0.7983  0.08264  0.07286  -0.0011  -0.00594  -0.1853  1.578
4.328e+09  0.2433  1.243  0.05228  -0.1547  0.0142  -0.001442  1.441  0.8793
4.332e+09  1.274  0.3784  -0.06567  -0.04692  -0.02177  0.04632  1.458  -0.8355
4.336e+09  0.8387  -0.9636  0.0393  -0.04681  -0.0403  0.005556  -0.1491  -1.697
4.34e+09  -0.5517  -1.214  -0.0387  0.04932  0.00564  -0.04524  -1.627  -0.5443
4.344e+09  -1.379  -0.05991  -0.02112  -0.02778  -0.04873  0.003669  -1.298  1.149
4.348e+09  -0.6306  1.128  0.07502  0.01309  -0.01488  -0.008036  0.4665  1.693
4.352e+09  0.8024  1.085  0.1014  -0.03628  0.002032  0.003564  1.675  0.4863
4.356e+09  1.296  -0.2279  0.03013  -0.06982  -0.03397  0.01153  1.066  -1.268
4.36e+09  0.3378  -1.311  -0.1325  0.01794  0.01484  0.04815  -0.8552  -1.702
4.364e+09  -0.8951  -0.9659  0.01026  -0.02521  0.06304  0.008522  -1.88  0.01963
4.368e+09  -1.198  0.516  -0.01076  0.0489  0.03556  -0.001424  -1.016  1.62
4.372e+09  -0.1364  1.239  0.08573  0.1498  0.07678  0.008935  1.034  1.554
4.376e+09  1.092  0.7065  0.008861  0.1014  -0.01073  -0.01146  1.813  -0.1308
4.38e+09  1.11  -0.6546  0.003895  0.0342  0.003801  -0.03216  0.6893  -1.598
4.384e+09  -0.1145  -1.343  -0.01781  -0.06923  0.01493  0.02883  -1.21  -1.322
4.388e+09  -1.191  -0.4951  0.01621  -0.1384  0.02182  -0.03184  -1.617  0.4826
4.392e+09  -0.9398  0.8766  0.0133  -0.07342  -0.03932  0.04203  -0.1722  1.671
4.396e+09  0.2464  1.176  -0.01265  -0.06012  0.04073  0.01495  1.333  0.9059
4.4e+09  1.15  0.1561  0.1564  0.5732  0.142  0.1649  1.439  -1.376
4.404e+09  0.8168  -0.8987  -0.06213  0.04172  0.06665  -0.001831  -0.06893  -1.705
4.408e+09  -0.4634  -1.108  -0.01572  0.04504  0.05133  -0.03001  -1.573  -0.6398
4.412e+09  -1.209  -0.1113  0.007943  0.0261  0.02177  -0.07678  -1.406  1.132
4.416e+09  -0.5998  1.066  0.0004952  -0.002832  0.01926  -0.0004364  0.511  1.526
4.42e+09  0.6308  0.958  0.01752  -0.0371  -0.01591  0.04162  1.692  0.3777
4.424e+09  1.169  -0.1157  -0.00965  -0.0996  -0.03882  0.02539  1.078  -1.406
4.428e+09  0.389  -1.037  -0.04484  -0.0141  -0.003286  0.06641  -0.7329  -1.48
4.432e+09  -0.7662  -0.8577  0.04038  0.08891  -0.01222  0.004306  -1.641  0.04513
4.436e+09  -1.179  0.2109  -0.01453  -0.01661  0.01813  -0.01302  -0.742  1.438
4.44e+09  -0.21  1.059  -0.02472  -0.04687  0.006419  0.005891  0.9428  1.204
4.444e+09  0.8974  0.72  0.02277  -0.0169  0.03195  0.07146  1.448  -0.261
4.448e+09  0.9808  -0.3908  -0.08385  -0.06052  0.04125  0.03285  0.4649  -1.447
4.452e+09  0.1068  -1.136  -0.02653  0.08131  -0.07677  0.002455  -1.047  -0.9285
4.456e+09  -0.9289  -0.6226  0.02955  -0.00742  0.02649  -0.006417  -1.268  0.5876
4.46e+09  -0.9543  0.5591  -0.04587  -0.1157  -0.05512  0.03995  -0.118  1.455
4.464e+09  0.009397  1.086  0.09002  -0.1503  0.05092  0.005946  1.237  0.735
4.468e+09  0.9921  0.4273  -0.02548  0.04436  0.0296  0.06899  1.2  -0.8893
4.472e+09  0.8354  -0.704  -0.1109  0.05855  -0.08345  0.04485  -0.2961  -1.313
4.476e+09  -0.2167  -0.9997  -0.01959  0.01853  0.03005  0.04559  -1.364  -0.383
4.48e+09  -0.9929  -0.1319  -0.00019  0.03596  0.009911  0.004003  -0.9134  1.043
4.484e+09  -0.6662  0.7654  -0.01177  0.04597  -0.004908  0.004596  0.4946  1.327
4.488e+09  0.4376  0.9399  -0.05169  0.0248  -0.007564  0.03972  1.317  0.07629
4.492e+09  1.058  0.0345  0.03545  -0.02079  0.01237  -0.01871  0.7442  -0.9993
4.496e+09  0.5687  -0.8613  -0.04709  0.06394  0.04489  0.01119  -0.6971  -1.148
4.5e+09  -0.4377  -0.7364  -0.483  0.3172  0.07335  0.02488  -1.276  0.5711
4.504e+09  -0.9515  0.05198  -0.09647  0.05698  0.04126  0.007222  -0.4717  1.14
4.508e+09  -0.3515  0.9241  0.02693  -0.05959  -0.03555  0.01199  0.8083  1.058
4.512e+09  0.6976  0.6794  0.02967  -0.001983  -0.0276  0.0527  1.2  -0.2698
4.516e+09  0.9198  -0.2492  0.004602  0.03664  0.03035  -0.009993  0.2842  -1.202
4.52e+09  0.1608  -0.9569  0.02756  0.05383  -0.006378  0.0763  -1.023  -0.8586
4.524e+09  -0.7276  -0.5829  0.04416  -0.01103  0.002239  -0.001199  -1.192  0.4186
4.528e+09  -0.8043  0.4547  -0.05771  -0.03328  -0.01716  -0.03197  -0.1445  1.182
4.532e+09  0.002145  0.9257  -0.01131  0.02452  0.02167  0.006943  0.9542  0.5992
4.536e+09  0.8697  0.482  -0.06034  0.05268  -0.02906  0.008426  1.119  -0.631
4.54e+09  0.7363  -0.5431  -0.01877  0.04351  -0.06437  0.05546  -0.08396  -1.173
4.544e+09  -0.1575  -0.9145  -0.002171  -0.07539  0.01049  0.007189  -1.051  -0.4753
4.548e+09  -0.9113  -0.2086  -0.01947  0.0647  0.02408  -0.09166  -1.002  0.8179
4.552e+09  -0.6102  0.6904  -0.03016  -0.002239  -0.03063  0.009871  0.3052  1.206
4.556e+09  0.3038  0.7663  0.09297  -0.05756  0.04025  -0.04336  1.265  0.2216
4.56e+09  0.9815  0.04711  0.2  -0.001286  0.02734  0.01011  0.8746  -0.8662
4.564e+09  0.4194  -0.7438  -0.02373  0.06253  -0.025  0.03219  -0.4875  -1.151
4.568e+09  -0.4721  -0.8439  -0.04801  0.03251  0.01094  -0.005185  -1.22  -0.0372
4.572e+09  -0.946  0.09399  0.05124  0.009513  0.05283  -0.01228  -0.6863  1.079
4.576e+09  -0.2728  0.872  0.07196  -0.0208  -0.003717  -0.03016  0.6939  1.013
4.58e+09  0.5957  0.648  -0.04828  0.002399  0.01493  0.01512  1.312  -0.1257
4.584e+09  0.7728  -0.2319  -0.06158  -0.005514  0.01369  0.02711  0.3327  -1.273
4.588e+09  0.1745  -0.8583  -0.06262  -0.009105  0.002662  -0.08486  -0.9983  -0.9548
4.592e+09  -0.675  -0.5534  -0.04658  0.02685  0.0682  0.03121  -1.316  0.4621
4.596e+09  -0.731  0.3981  0.07356  0.06144  0.01345  -0.01327  -0.1039  1.362
4.6e+09  -0.02536  0.8813  0.2246  0.1387  -0.01961  0.01741  1.138  0.9149
4.604e+09  0.8226  0.4059  0.03757  -0.0375  -0.02791  0.05558  1.178  -0.6598
4.608e+09  0.6775  -0.4783  0.04655  -0.02941  0.006325  0.01502  -0.1423  -1.31
4.612e+09  -0.1514  -0.869  0.1252  0.03665  -0.02419  -0.001558  -1.152  -0.5771
4.616e+09  -0.8086  -0.2986  0.06685  -0.1333  -0.001641  -0.05961  -0.8871  0.8643
4.62e+09  -0.6297  0.5928  0.06907  -0.02959  0.01688  -0.01072  0.3915  1.211
4.624e+09  0.1605  0.8056  -0.01097  -0.01034  -0.01246  -0.003889  1.274  0.1638
4.628e+09  0.8451  0.1774  -0.08708  0.07451  0.02198  0.04673  0.7404  -1.05
4.632e+09  0.5654  -0.5757  -0.07333  0.03738  0.06061  0.01032  -0.6603  -1.144
4.636e+09  -0.2823  -0.726  0.01588  0.07433  -0.03043  -0.007087  -1.359  0.09421
4.64e+09  -0.7587  -0.09394  0.02716  0.08774  0.05681  -0.004997  -0.5702  1.207
4.644e+09  -0.4016  0.6439  -0.007425  0.07176  0.01341  0.04556  0.8313  0.9737
4.648e+09  0.4052  0.6183  0.03574  -0.08534  0.0165  -0.0365  1.201  -0.1548
4.652e+09  0.7745  -0.07232  0.09687  0.01177  0.01971  -0.0188  0.3548  -1.172
4.656e+09  0.3027  -0.7435  0.118  -0.05617  -0.05978  -0.04389  -0.9427  -0.8445
4.66e+09  -0.4687  -0.5796  0.01379  0.054  0.02344  0.02428  -1.068  0.4483
4.664e+09  -0.844  0.1158  -0.01257  0.06505  0.02231  -0.0092  -0.02787  1.199
4.668e+09  -0.2667  0.7448  0.01068  -0.05388  -0.02089  0.02867  0.9444  0.5563
4.672e+09  0.5183  0.6202  -0.04892  -0.002302  -0.01111  0.01277  0.9867  -0.5956
4.676e+09  0.822  -0.1453  -2.564e-05  -0.09096  0.04916  -0.007446  -0.1597  -1.145
4.68e+09  0.1898  -0.8392  -0.08916  0.06759  0.06679  0.0005048  -1.092  -0.5377
4.684e+09  -0.608  -0.5829  -0.03003  0.03586  0.03194  -0.01277  -0.9196  0.7937
4.688e+09  -0.768  0.2775  -0.01059  0.04499  0.002701  -0.02903  0.2188  1.159
4.692e+09  -0.07655  0.8306  0.07222  0.04475  0.02091  -0.02605  1.11  0.3435
4.696e+09  0.7281  0.46  0.109  -0.002771  0.01368  -0.03551  0.8087  -0.806
4.7e+09  0.7245  -0.4169  0.1108  -0.02763  -0.007876  -0.04103  -0.4614  -1.051
4.704e+09  -0.02308  -0.8145  0.04938  -0.02739  0.01176  0.0002038  -0.9988  -0.07242
4.708e+09  -0.7942  -0.4313  0.03097  0.03128  0.01003  -0.01268  -0.598  0.8603
4.712e+09  -0.7434  0.5288  -0.009389  -0.01897  0.02911  -0.04097  0.4906  0.933
4.716e+09  0.1242  0.9742  -0.05142  -0.01702  0.006187  -0.04042  1.04  -0.09271
4.72e+09  0.8649  0.3298  -0.005184  -0.07296  0.008463  0.06806  0.4131  -0.9193
4.724e+09  0.7376  -0.6271  -0.0218  0.03601  -0.02245  -0.05387  -0.6492  -0.7699
4.728e+09  -0.2327  -0.8882  0.04054  0.05296  -0.004729  -0.009287  -1.044  0.1829
4.732e+09  -0.9094  -0.1701  0.02621  0.05361  -0.02578  -0.04386  -0.255  1.077
4.736e+09  -0.5926  0.7256  0.02286  0.009276  0.05772  0.002092  0.7261  0.653
4.74e+09  0.4272  0.787  0.06807  -0.03431  0.07492  -0.008092  1.048  -0.3287
4.744e+09  0.9574  0.01258  -0.0453  0.003549  -0.02783  -0.005966  0.1034  -1.043
4.748e+09  0.5212  -0.8674  0.001449  0.002929  -0.03116  0.004478  -0.8662  -0.6316
4.752e+09  -0.5487  -0.7834  0.0165  0.06189  0.004471  0.03284  -0.9986  0.5379
4.756e+09  -0.9797  0.1683  0.03511  0.005786  0.01878  0.01397  0.03199  1.099
4.76e+09  -0.3224  0.9784  -0.03607  -0.01145  -0.01656  0.01941  0.9589  0.4146
4.764e+09  0.7411  0.7744  0.006444  0.00611  0.06549  0.02394  0.8227  -0.7106
4.768e+09  0.9422  -0.3472  -0.004788  -0.01223  0.05905  0.004834  -0.1936  -1.036
4.772e+09  0.1312  -0.9882  0.02297  -0.03568  0.06128  0.01123  -1.042  -0.3021
4.776e+09  -0.8886  -0.5804  0.02101  -0.0282  0.02306  -0.008279  -0.8109  0.8104
4.78e+09  -0.803  0.4578  0.04834  0.02619  -0.01001  -0.0214  0.3338  0.9481
4.784e+09  0.1134  0.9918  -0.03567  -0.0623  0.002693  0.008634  1.079  0.1631
4.788e+09  0.9134  0.4146  0.000162  0.09137  -0.008461  0.0577  0.6064  -0.8809
4.792e+09  0.6832  -0.6289  -0.02859  0.09985  -0.01061  -0.0394  -0.5749  -0.9483
4.796e+09  -0.2309  -0.8905  0.04611  -0.02567  -0.01779  0.01269  -1.064  0.1035
4.8e+09  -0.9064  -0.08291  -0.07728  -0.1285  0.03899  -0.01827  -0.5609  1.019
4.804e+09  -0.4783  0.6776  0.03143  -0.1123  -0.02213  0.04784  0.7874  0.9166
4.808e+09  0.4117  0.714  0.06081  -0.0677  0.04935  -0.0118  1.111  -0.2244
4.812e+09  0.823  -0.04908  -0.05814  0.03233  0.02156  -0.09538  0.2048  -1.217
4.816e+09  0.3332  -0.686  0.00298  -0.01226  -0.01433  -0.04321  -0.961  -0.7024
4.82e+09  -0.4529  -0.5727  0.02875  -0.0117  -0.01295  0.03406  -1.073  0.5333
4.824e+09  -0.7665  0.1239  0.004589  0.06258  -0.004626  -0.03001  0.1378  1.23
4.828e+09  -0.158  0.7058  0.0135  -0.0135  0.01512  -0.03953  1.239  0.5678
4.832e+09  0.5399  0.4585  0.01102  0.0128  0.0464  -0.0008633  0.8747  -0.8083
4.836e+09  0.6146  -0.2398  0.04119  -0.05817  -0.01733  0.007192  -0.2192  -1.142
4.84e+09  0.08908  -0.702  -0.01864  0.05325  -0.006359  0.0492  -1.135  -0.2019
4.844e+09  -0.5063  -0.3577  -0.00946  -0.03578  -0.0006113  -0.005579  -0.7494  0.9389
4.848e+09  -0.5442  0.2888  -0.05151  0.06448  0.03354  0.04239  0.4602  1.085
4.852e+09  0.01591  0.6432  -0.02864  0.03347  0.06235  -0.02473  1.186  -0.04036
4.856e+09  0.5932  0.2948  0.03676  -7.137e-05  0.07367  -0.003871  0.4908  -0.9635
4.86e+09  0.5073  -0.337  0.01151  0.01901  0.01109  0.006693  -0.5669  -0.8477
4.864e+09  -0.0587  -0.6102  0.02625  -0.0004855  -0.01922  -0.005701  -1.101  0.1888
4.868e+09  -0.5758  -0.1906  0.04327  0.008181  -0.01876  0.04001  -0.3579  1.027
4.872e+09  -0.3909  0.3354  0.05368  -0.006209  0.05499  -0.002913  0.8066  0.7148
4.876e+09  0.1522  0.5588  0.01767  -0.0008873  -0.005971  0.02968  0.8926  -0.3621
4.88e+09  0.543  0.02129  -0.07527  -0.01364  0.03327  -0.06173  0.06707  -0.9793
4.884e+09  0.3158  -0.4882  -0.05771  0.002471  -0.03164  -0.001948  -0.845  -0.5621
4.888e+09  -0.2573  -0.5196  -0.0007087  -0.06145  -0.05442  0.05791  -0.8554  0.5381
4.892e+09  -0.562  -0.01414  -0.03975  0.05482  0.01453  0.04162  0.0488  0.9482
4.896e+09  -0.2777  0.5187  0.06023  -0.05711  -0.1119  0.03403  0.8917  0.3296
4.9e+09  0.2669  0.4589  -0.005931  0.0212  0.01264  -0.01156  0.681  -0.5508
4.904e+09  0.555  -0.06342  0.05045  0.06091  0.08071  0.08594  -0.1649  -0.8161
4.908e+09  0.2434  -0.5496  0.0119  0.05595  -0.0005442  0.0009529  -0.8348  -0.2151
4.912e+09  -0.3997  -0.5083  0.04748  -0.03972  -0.002312  0.04257  -0.5  0.6895
4.916e+09  -0.5888  0.1017  0.07804  0.02444  -0.008653  0.02906  0.4126  0.7301
4.92e+09  -0.1184  0.5429  -0.01219  0.007717  -0.02251  -0.03094  0.7998  0.08276
4.924e+09  0.4561  0.372  -0.05331  -0.01788  -0.01345  -0.004723  0.4938  -0.6578
4.928e+09  0.571  -0.2502  0.01986  0.032  -0.08386  -0.02029  -0.3416  -0.7707
4.932e+09  0.06652  -0.5952  0.04058  -0.0267  0.01337  0.007447  -0.8722  -0.008499
4.936e+09  -0.5483  -0.3823  -0.007856  0.01007  0.05567  -0.02073  -0.3967  0.6901
4.94e+09  -0.611  0.2808  0.04653  -0.048  0.05518  0.03598  0.4246  0.6165
4.944e+09  0.03185  0.6434  0.07375  -0.02164  -0.04809  -0.0527  0.7778  -0.06092
4.948e+09  0.618  0.3444  -0.001723  0.05241  -0.03132  0.03927  0.2564  -0.7789
4.952e+09  0.554  -0.3902  -0.0002944  -0.02554  -0.02124  0.00494  -0.4465  -0.5919
4.956e+09  -0.09456  -0.7134  0.05107  0.03261  -0.02398  0.02496  -0.7988  0.1824
4.96e+09  -0.7625  -0.2402  -0.05383  0.04691  0.0007942  -0.03928  -0.1931  0.7316
4.964e+09  -0.4957  0.5532  0.02909  -0.01117  0.02638  0.0003009  0.6191  0.5181
4.968e+09  0.288  0.6918  0.01335  -0.03196  0.01393  -0.01178  0.6836  -0.239
4.972e+09  0.8256  0.1184  0.002682  0.04969  0.01715  -0.05067  0.1269  -0.7325
4.976e+09  0.4424  -0.7104  0.009757  -0.02956  -0.06411  0.01065  -0.6878  -0.5161
4.98e+09  -0.4521  -0.7254  0.002866  -0.006119  0.0002509  0.05304  -0.7146  0.3688
4.984e+09  -0.8285  0.03538  0.0006377  0.02644  -0.019  -0.04711  0.04006  0.8238
4.988e+09  -0.3301  0.8441  0.01137  0.0557  0.01082  0.01165  0.7221  0.392
4.992e+09  0.5749  0.6557  -0.005291  -0.00986  -0.006119  0.002959  0.7063  -0.5354
