# Hz S RI R 50
4e+09  0.9971  1.966  -2.573  -0.07604  -1.75  1.662  -2.602  -2.605
4.004e+09  0.749  1.103  -0.03139  -0.05845  -0.0026  0.06938  -1.696  1.873
4.008e+09  1.308  -0.1811  -0.04485  0.04652  -0.06626  0.08425  0.9444  2.335
4.012e+09  0.4884  -1.263  0.1097  -0.09601  0.05108  0.004156  2.403  0.2184
4.016e+09  -0.8707  -0.9752  0.03126  -0.006544  -0.02924  0.002581  1.257  -2.025
4.02e+09  -1.274  0.3962  0.04525  -0.07144  0.03172  0.05049  -1.197  -1.945
4.024e+09  -0.1779  1.289  0.0007339  -0.04385  0.01036  -0.02679  -2.322  0.1976
4.028e+09  1.116  0.8215  0.01247  0.02464  0.01701  -0.01823  -0.7642  2.154
4.032e+09  1.299  -0.5888  -0.1396  0.1292  -0.03379  -0.009789  1.457  1.743
4.036e+09  -0.02553  -1.377  0.05382  0.06764  0.0173  0.03608  2.03  -0.5395
4.04e+09  -1.343  -0.6376  -0.0402  -0.05377  -0.04904  0.02799  0.5138  -2.053
4.044e+09  -1.121  0.895  0.05475  -0.1158  -0.0002318  0.04341  -1.651  -1.324
4.048e+09  0.3271  1.448  -0.05242  -0.0472  0.01076  -0.003772  -1.915  0.7944
4.052e+09  1.429  0.3509  -0.06144  -0.01626  -0.02208  -0.0001919  -0.08236  1.997
4.056e+09  0.9251  -1.124  0.01549  -0.07685  0.03116  -0.01156  1.757  0.97
4.06e+09  -0.6292  -1.272  -0.02253  -0.06825  0.02353  -0.009718  1.738  -1.096
4.064e+09  -1.459  -0.03702  -0.008044  -0.0424  -0.05064  -0.06919  -0.172  -1.995
4.068e+09  -0.74  1.311  0.08793  0.03723  0.003081  0.07824  -1.833  -0.7352
4.072e+09  0.8367  1.158  -0.05537  0.07868  0.03705  -0.05653  -1.51  1.257
4.076e+09  1.468  -0.2874  0.08838  -0.02458  0.05055  0.005529  0.4538  1.819
4.08e+09  0.3754  -1.315  0.04816  0.06302  0.005758  -0.002174  2.002  0.6058
4.084e+09  -1.136  -0.9057  0.106  -0.06516  0.02135  -0.02082  1.322  -1.478
4.088e+09  -1.331  0.6641  0.04822  -0.08435  -0.05326  -0.06081  -0.5956  -1.88
4.092e+09  0.02391  1.456  0.008441  -0.04078  -0.01504  -0.05785  -1.895  -0.3645
4.096e+09  1.267  0.6869  0.02539  -0.05853  -0.04992  0.02632  -1.099  1.457
4.1e+09  1.118  -0.8673  -0.08473  -0.02491  0.0008663  0.04857  0.8759  1.921
4.104e+09  -0.3446  -1.365  -0.06162  0.007857  0.03015  -0.05343  1.932  0.03287
4.108e+09  -1.365  -0.299  -0.05888  -0.06411  0.06619  -0.000187  0.8914  -1.727
4.112e+09  -0.6579  0.9349  -0.02535  0.07799  -0.04066  -0.01937  -0.9707  -1.583
4.116e+09  0.522  1.186  0.06727  0.01581  -0.027  -0.07867  -1.949  0.2237
4.12e+09  1.235  0.03852  -0.009765  -0.03802  -0.01888  0.03552  -0.7026  1.927
4.124e+09  0.5435  -1.07  -0.06641  -0.1009  -0.02668  -0.03033  1.354  1.442
4.128e+09  -0.7712  -0.9579  3.335e-05  0.1053  -0.001358  -0.03183  1.956  -0.5905
4.132e+09  -1.159  0.2094  0.06606  0.00359  0.01123  0.08651  0.3682  -2.051
4.136e+09  -0.3949  1.12  0.02387  -0.063  -0.0469  0.01152  -1.717  -1.179
4.14e+09  0.8192  0.7833  0.02957  -0.1484  -0.01853  -0.00781  -1.771  0.92
4.144e+09  1.096  -0.3809  -0.02878  -0.03938  -0.04085  0.05109  0.009471  2.072
4.148e+09  0.1811  -1.203  -0.002494  0.0174  -0.06  -0.004235  1.866  0.9682
4.152e+09  -0.9177  -0.7315  0.01187  0.02449  -0.003295  0.03665  1.728  -1.281
4.156e+09  -0.954  0.531  -0.009587  -0.04062  -0.009177  -0.03625  -0.3799  -2.178
4.16e+09  0.02986  1.139  0.02963  0.05756  -0.01098  0.02978  -1.994  -0.5704
4.164e+09  0.9616  0.4827  0.06775  -0.1014  0.044  -0.002305  -1.537  1.711
4.168e+09  0.829  -0.6266  -0.005596  0.03048  0.01017  -0.01329  0.7201  2.057
4.172e+09  -0.1863  -1.046  0.06634  -0.03377  -0.04235  0.01614  2.233  0.1714
4.176e+09  -1.05  -0.3887  -0.05337  0.08332  -0.02984  0.02095  1.064  -1.891
4.18e+09  -0.7728  0.6996  -0.04921  -0.04087  -0.06968  0.02199  -1.382  -1.819
4.184e+09  0.3181  1.032  -0.04977  -0.01928  0.09312  0.0111  -2.118  0.4246
4.188e+09  1.019  0.2341  -0.02128  0.03587  0.0307  -0.02309  -0.5908  2.135
4.192e+09  0.6818  -0.8042  -0.0286  -0.02153  -0.0103  0.01544  1.55  1.312
4.196e+09  -0.3458  -1.06  -0.05174  -0.03557  -0.06365  -0.00631  1.955  -0.8644
4.2e+09  -1.054  -0.09804  0.199  -0.02868  0.006669  -0.04651  -0.06692  -2.222
4.204e+09  -0.5744  0.9136  -0.02322  -0.06658  -0.01219  0.0161  -1.849  -0.8595
4.208e+09  0.5553  0.9561  0.03804  -0.05836  0.03568  -0.03503  -1.549  1.193
4.212e+09  1.101  -0.05945  -0.01095  -0.0415  -0.01261  -0.01595  0.4467  2.051
4.216e+09  0.474  -0.9677  0.0242  0.01996  -0.04521  0.01474  1.991  0.4274
4.22e+09  -0.7071  -0.917  0.1272  -0.01161  -0.006226  0.0002102  1.229  -1.643
4.224e+09  -1.058  0.2652  -0.0408  0.01046  0.03649  0.0375  -0.956  -1.749
4.228e+09  -0.2683  1.12  -0.02474  -0.1435  -0.05712  0.01562  -2.01  -0.02556
4.232e+09  0.891  0.8091  -0.08658  0.009609  -0.0713  0.0667  -0.7641  1.748
4.236e+09  1.191  -0.4063  0.0191  0.0604  -0.01955  0.00642  1.185  1.475
4.24e+09  0.09046  -1.244  0.09439  0.1542  -0.03152  -0.05655  1.911  -0.329
4.244e+09  -1.047  -0.6431  -0.05176  -0.007336  0.01593  0.007115  0.3904  -1.651
4.248e+09  -0.9871  0.6461  -0.05681  -0.0399  -0.02632  -0.07002  -1.389  -1.126
4.252e+09  0.0853  1.26  0.01269  0.01719  0.02119  -0.04336  -1.626  0.6974
4.256e+09  1.167  0.5311  0.04834  0.05153  -0.08262  -0.02837  -0.1961  1.748
4.26e+09  0.953  -0.775  0.01421  -0.009511  0.01037  0.02035  1.407  0.7893
4.264e+09  -0.3393  -1.201  -0.04125  -0.01349  0.03963  0.03077  1.457  -1.004
4.268e+09  -1.218  -0.3176  0.007906  0.02839  0.1037  0.02171  -0.1651  -1.73
4.272e+09  -0.8158  1.073  -0.04997  0.0006777  -0.007157  -0.03767  -1.525  -0.5435
4.276e+09  0.5154  1.235  0.01341  -0.04199  0.04875  -0.003517  -1.156  1.154
4.28e+09  1.252  0.01729  -0.05344  -0.0197  -0.01444  0.01562  0.4717  1.533
4.284e+09  0.6425  -1.178  -0.03302  0.01291  -0.05486  0.02789  1.732  0.2022
4.288e+09  -0.7595  -0.9843  -0.09894  0.02914  -0.04094  0.03808  0.9591  -1.278
4.292e+09  -1.271  0.2597  0.02862  0.02262  -0.03379  -0.003076  -0.8337  -1.465
4.296e+09  -0.2861  1.282  0.001988  -0.06765  0.0006585  -0.06065  -1.574  0.07327
4.3e+09  1.07  0.8435  0.07769  0.08749  -0.03419  0.01352  -0.7538  1.394
4.304e+09  1.176  -0.5251  0.1268  -0.0213  0.01888  0.02572  0.8641  1.282
4.308e+09  -0.00187  -1.272  0.03288  0.03612  0.008483  -0.03606  1.513  -0.199
4.312e+09  -1.068  -0.558  0.01764  0.135  0.03623  0.01403  0.5302  -1.471
4.316e+09  -1.022  0.69  -0.001111  0.09269  -0.04125  -0.003489  -1.15  -1.205
4.32e+09  0.1319  1.325  0.03352  -0.01502  0.01495  0.03987  -1.589  0.4055
4.324e+09  1.22  0.4552  0.0707  -0.04154  0.05293  -0.006456  -0.3372  1.678
4.328e+09  0.8884  -0.8073  0.1241  -0.02467  0.02266  0.0005454  1.366  1.163
4.332e+09  -0.3067  -1.132  0.1097  0.02518  -0.008582  0.0216  1.591  -0.6634
4.336e+09  -1.215  -0.1929  -0.04995  -0.01944  -0.001682  -0.03948  0.05398  -1.773
4.34e+09  -0.7153  0.9512  -0.02166  0.03276  0.01913  -0.04504  -1.541  -0.851
4.344e+09  0.5142  1.068  0.03271  0.02177  0.02228  -0.0287  -1.503  0.8281
4.348e+09  1.1  0.002026  -0.06484  -0.0607  -0.01968  -0.02604  0.1173  1.704
4.352e+09  0.5491  -0.9975  -0.01595  0.05171  0.03719  0.05864  1.632  0.5773
4.356e+09  -0.7369  -0.8732  -0.05472  -0.04942  0.02491  0.01861  1.346  -1.266
4.36e+09  -1.087  0.1784  -0.02319  0.1066  -0.006719  0.02857  -0.5008  -1.647
4.364e+09  -0.3147  1.062  -0.001386  0.01885  -0.02666  -0.01207  -1.739  -0.3423
4.368e+09  0.8147  0.6539  -0.01207  0.08829  0.04278  0.03828  -1.049  1.432
4.372e+09  0.9783  -0.3899  0.07406  0.01837  0.01481  0.03044  0.7949  1.567
4.376e+09  0.09609  -1.001  0.0169  -0.008227  0.0329  -0.08629  1.827  -0.02864
4.38e+09  -0.8496  -0.6164  -0.04191  -0.03847  -0.01201  -0.02871  0.8468  -1.689
4.384e+09  -0.8706  0.5398  -0.05869  -0.03525  -0.0128  0.0002196  -1.047  -1.553
4.388e+09  0.02421  0.9776  0.05462  0.004744  0.01038  -0.01516  -1.727  0.2101
4.392e+09  0.8743  0.417  -0.04317  0.05251  -0.006721  0.003052  -0.6307  1.871
4.396e+09  0.8372  -0.6213  -0.06083  0.04845  0.006072  0.09125  1.424  1.231
4.4e+09  -0.09165  -1.003  0.01373  0.101  0.001926  0.1173  1.646  -0.628
4.404e+09  -1.003  -0.3091  0.02848  0.01489  0.01551  -0.008355  0.2987  -1.884
4.408e+09  -0.6869  0.7364  0.01994  -0.009986  -0.01673  0.02823  -1.575  -0.9831
4.412e+09  0.3137  0.9016  0.01552  -0.08719  -0.01891  0.01021  -1.557  0.9
4.416e+09  1.008  0.07023  0.004521  -0.04894  -0.003937  -0.01106  0.2016  1.786
4.42e+09  0.528  -0.7806  -0.02606  -0.06945  -0.02459  -0.06465  1.662  0.5738
4.424e+09  -0.4364  -0.8482  -0.03941  -0.0183  -0.01923  -0.02831  1.302  -1.211
4.428e+09  -0.9996  0.04471  0.09575  0.002534  0.001036  -0.003968  -0.5671  -1.719
4.432e+09  -0.4729  0.8884  -0.01574  -0.01471  0.08285  -0.05823  -1.725  -0.281
4.436e+09  0.6369  0.7697  0.1053  0.006829  -0.01658  0.007788  -0.9866  1.435
4.44e+09  0.9631  -0.1829  -0.04579  0.0812  -0.004355  -0.03437  0.8413  1.466
4.444e+09  0.2837  -0.8535  -0.04554  -0.0428  -0.00368  -0.0142  1.677  -0.1065
4.448e+09  -0.6963  -0.6437  0.01104  0.01045  0.0653  0.01465  0.6371  -1.462
4.452e+09  -0.8673  0.3735  -0.004408  -0.009345  -0.006371  -0.03729  -1.13  -1.275
4.456e+09  -0.08245  1.006  0.1292  -0.05848  0.02488  0.0007877  -1.588  0.3905
4.46e+09  0.8638  0.5105  0.02903  0.06218  0.03489  0.006746  -0.3337  1.517
4.464e+09  0.7957  -0.4892  0.003916  -0.02024  -0.03747  0.01203  1.236  0.9592
4.468e+09  -0.103  -0.9432  0.004509  0.06178  0.01158  -0.02454  1.42  -0.784
4.472e+09  -0.8768  -0.3315  0.01583  -0.01028  -0.01121  0.04391  -0.0251  -1.505
4.476e+09  -0.706  0.6899  -0.0232  0.03606  0.03429  -0.00551  -1.412  -0.6989
4.48e+09  0.2634  0.928  -0.0688  0.02065  0.09731  0.0268  -1.133  0.9471
4.484e+09  0.8966  0.1403  -0.04097  0.008535  0.003762  0.01316  0.3534  1.388
4.488e+09  0.6779  -0.7803  0.009209  0.02935  0.05355  -0.001037  1.313  0.3091
4.492e+09  -0.469  -0.8506  0.03967  -0.05787  0.001043  0.002213  0.9025  -0.9785
4.496e+09  -0.9624  -0.02152  -0.05154  0.01903  -0.07588  -0.02251  -0.4084  -1.273
4.5e+09  -0.3536  0.9185  -0.1414  -0.1376  0.0373  -0.001256  -1.566  -0.1082
4.504e+09  0.5199  0.7355  -0.002782  -0.06355  0.01709  0.02779  -0.7669  1.132
4.508e+09  0.934  -0.201  0.02088  -0.05297  -0.06806  0.007778  0.702  1.137
4.512e+09  0.3163  -0.8706  -0.03842  -0.01122  0.02556  -0.03544  1.387  -0.1085
4.516e+09  -0.7319  -0.601  0.01011  -0.007719  -0.002245  -0.002462  0.5568  -1.183
4.52e+09  -0.8901  0.3147  -0.07283  0.02739  0.006492  0.01262  -0.8487  -1.057
4.524e+09  -0.0744  0.9007  0.006326  0.03825  0.04703  -0.06437  -1.27  0.3182
4.528e+09  0.8135  0.4238  0.02406  0.06256  -0.06048  0.04873  -0.4067  1.291
4.532e+09  0.7302  -0.4266  0.06032  0.06281  0.01632  -0.007064  0.9877  0.8442
4.536e+09  -0.09299  -0.9055  -0.03018  0.06281  -0.01806  0.02224  1.149  -0.4788
4.54e+09  -0.8005  -0.3041  -0.006636  -0.1068  -0.02728  -0.006571  0.07127  -1.285
4.544e+09  -0.7069  0.5639  0.07545  -0.01679  -0.05906  0.02834  -1.076  -0.6639
4.548e+09  0.1124  0.8158  0.06125  0.03909  0.008955  -0.03835  -1.06  0.6903
4.552e+09  0.8882  0.2574  0.0572  0.04007  -0.04393  0.01906  0.1316  1.27
4.556e+09  0.559  -0.5981  -0.02359  -0.0273  0.06056  -0.0415  1.212  0.4566
4.56e+09  -0.2502  -0.7821  0.04009  -0.009354  0.04184  0.007149  0.979  -0.8741
4.564e+09  -0.8209  -0.09968  -0.04456  -0.002711  -0.01722  0.01338  -0.3812  -1.263
4.568e+09  -0.5112  0.6741  -0.05534  0.01159  0.03805  -0.01016  -1.34  -0.3294
4.572e+09  0.3832  0.7272  -0.0881  0.09226  -0.05024  -0.0001355  -0.8689  1.014
4.576e+09  0.8621  -0.002478  -0.03632  0.09294  0.03023  0.002867  0.586  1.241
4.58e+09  0.3755  -0.7308  -0.03986  0.1019  -0.0005883  0.1062  1.374  0.08993
4.584e+09  -0.5166  -0.7211  0.04843  0.02048  0.003752  0.01542  0.6706  -1.233
4.588e+09  -0.8152  0.0526  0.08975  0.02683  0.03752  0.001057  -0.7942  -1.151
4.592e+09  -0.2845  0.7681  -0.01877  -0.01229  0.01665  -0.05758  -1.33  0.2093
4.596e+09  0.5434  0.5937  0.1  -0.05872  0.02788  -0.03159  -0.36  1.365
4.6e+09  0.735  -0.1241  -0.06685  -0.0418  -0.03565  0.08593  1.035  0.8858
4.604e+09  0.2045  -0.8477  -0.0316  -0.02445  0.05195  -0.006765  1.366  -0.5166
4.608e+09  -0.6498  -0.5926  0.013  0.007978  0.09896  0.03151  0.06556  -1.476
4.612e+09  -0.7398  0.2469  -0.02585  0.02161  0.01824  -0.02746  -1.4  -0.7354
4.616e+09  -0.1477  0.7654  -0.1608  0.01338  -0.02571  -0.02014  -1.26  0.7494
4.62e+09  0.6665  0.4712  -0.04248  0.05491  -0.05102  0.09929  0.1253  1.472
4.624e+09  0.7565  -0.3637  0.01138  0.03834  -0.03026  -0.02026  1.344  0.4815
4.628e+09  -0.02316  -0.835  0.03014  0.05396  0.0483  -0.02067  0.9955  -1.012
4.632e+09  -0.7292  -0.3672  -0.00401  0.07646  -0.004988  0.02177  -0.4479  -1.303
4.636e+09  -0.7202  0.5089  0.07453  -0.08519  0.04634  0.04399  -1.299  -0.08632
4.64e+09  0.1378  0.9139  0.02802  -0.1294  -0.02134  -0.01992  -0.7737  1.134
4.644e+09  0.8758  0.2779  0.01908  -0.05281  0.01396  -0.02379  0.6985  1.093
4.648e+09  0.6325  -0.6774  -0.1002  -0.005538  -0.0388  0.01799  1.348  -0.1183
4.652e+09  -0.2587  -0.8758  0.05124  0.04708  0.007427  -0.04739  0.4811  -1.305
4.656e+09  -0.905  -0.08981  0.0008329  0.06704  0.05024  -0.003357  -0.9033  -1.047
4.66e+09  -0.5366  0.726  -0.09148  -0.08339  0.01261  0.00724  -1.324  0.3482
4.664e+09  0.3958  0.8508  0.04543  0.01634  -0.04059  -0.01552  -0.2736  1.317
4.668e+09  0.8694  0.04247  -0.01264  -0.1079  0.02874  0.06247  1.007  0.8377
4.672e+09  0.478  -0.7778  -0.02273  -0.003298  -0.02297  0.01447  1.197  -0.5176
4.676e+09  -0.5313  -0.7029  0.02669  0.03433  -0.01379  0.02159  -0.006078  -1.302
4.68e+09  -0.9163  0.1461  -0.04289  -0.02114  -0.01619  0.0005628  -1.02  -0.6588
4.684e+09  -0.3113  0.8546  0.03363  0.02631  -0.03004  0.005245  -1.167  0.6233
4.688e+09  0.6975  0.6545  0.03092  0.00963  0.02414  0.005167  0.2334  1.274
4.692e+09  0.8585  -0.2992  0.00976  -0.062  0.03483  -0.02569  1.073  0.4737
4.696e+09  0.09392  -0.9723  -0.04444  -0.006665  0.0814  -0.04491  0.9103  -0.8331
4.7e+09  -0.8307  -0.4482  0.02322  0.04429  0.01777  -0.08934  -0.3382  -1.201
4.704e+09  -0.7586  0.4905  0.008359  -0.0257  0.03242  -0.00747  -1.098  -0.2316
4.708e+09  0.09141  0.8661  -0.04152  0.04304  -0.00386  -0.01279  -0.7157  0.8934
4.712e+09  0.8088  0.2574  -0.00633  0.06731  0.003908  0.05018  0.4478  1.121
4.716e+09  0.5812  -0.5955  -0.006067  0.02158  -0.01644  -0.01619  1.118  -0.02466
4.72e+09  -0.3051  -0.7731  -0.004988  -0.06892  0.003474  -0.001774  0.6209  -0.9863
4.724e+09  -0.8109  -0.03752  0.0359  0.009449  -0.03182  -0.02241  -0.5562  -1
4.728e+09  -0.4372  0.6636  -0.05357  -0.01795  0.04295  0.02589  -1.118  0.09507
4.732e+09  0.4469  0.6286  0.05689  0.0229  -0.02334  -0.03579  -0.3465  1.014
4.736e+09  0.8443  -0.1114  0.04034  -0.01308  -0.01276  0.01023  0.6625  0.8418
4.74e+09  0.2752  -0.6856  -0.03456  -0.05156  0.06589  -0.0164  1.215  -0.241
4.744e+09  -0.5481  -0.519  0.04251  0.04955  -0.0105  -0.001891  0.247  -1.059
4.748e+09  -0.6237  0.2334  0.003128  0.03608  -0.0179  0.05743  -0.8027  -0.7316
4.752e+09  -0.1526  0.6593  0.02283  0.08677  -0.01731  0.0169  -1.022  0.371
4.756e+09  0.5734  0.4671  -0.005357  -0.01808  -0.04302  0.04251  -0.1583  1.111
4.76e+09  0.6006  -0.2743  0.04694  0.01789  0.03759  0.06249  0.9339  0.6309
4.764e+09  -0.03748  -0.6392  0.04181  0.1093  -0.02859  -0.03845  0.9903  -0.5807
4.768e+09  -0.5742  -0.3411  -0.04223  0.05998  0.01167  0.02772  -0.03896  -1.214
4.772e+09  -0.5428  0.3582  -0.1068  0.01245  0.005358  -0.0256  -1.023  -0.4391
4.776e+09  0.0327  0.6203  -0.04508  -0.02651  0.03714  -0.003587  -0.8958  0.7868
4.78e+09  0.6263  0.1787  -0.03656  -0.05463  0.03695  0.03454  0.3106  1.174
4.784e+09  0.4328  -0.4419  -0.01964  -0.01154  -0.01418  -0.02647  1.08  0.2914
4.788e+09  -0.1691  -0.5309  -0.07437  0.07865  0.01334  -0.03091  0.7982  -0.9031
4.792e+09  -0.5997  -0.1063  0.1047  -0.05036  0.03778  -0.01152  -0.354  -1.059
4.796e+09  -0.3439  0.4804  0.04224  -0.07578  -0.03934  -0.01698  -1.216  -0.0952
4.8e+09  0.2187  0.5322  0.06965  -0.07355  -0.0148  0.02338  -0.667  0.9787
4.804e+09  0.5404  0.04495  -0.009051  0.007042  -0.002566  0.007296  0.6575  1.081
4.808e+09  0.3044  -0.4423  -0.07198  0.05334  -0.01896  0.001059  1.235  -0.1293
4.812e+09  -0.2455  -0.4776  -0.0459  0.09514  -0.00217  0.009309  0.3628  -1.205
4.816e+09  -0.5654  0.03824  -0.02506  0.05373  -0.01428  0.02872  -0.9268  -0.873
4.82e+09  -0.2233  0.4979  0.06995  -0.024  -0.05042  -0.01413  -1.217  0.5446
4.824e+09  0.3334  0.4226  0.003525  0.07005  0.03233  0.02717  -0.131  1.348
4.828e+09  0.6169  -0.1156  -0.04935  0.07773  -0.006077  -0.03841  1.144  0.652
4.832e+09  0.1626  -0.5604  -7.386e-05  0.04695  0.006033  0.006668  1.147  -0.6822
4.836e+09  -0.4368  -0.4019  0.01433  0.04767  0.007349  -0.02803  -0.2185  -1.359
4.84e+09  -0.6263  0.1906  -0.02939  0.02832  0.02693  0.005847  -1.213  -0.415
4.844e+09  -0.112  0.5908  -0.01847  -0.05466  -0.03604  -0.05023  -0.8854  0.859
4.848e+09  0.4838  0.4172  0.05612  0.03873  -0.01177  -0.007208  0.4561  1.286
4.852e+09  0.5669  -0.2699  -0.001702  -0.04934  0.01047  -0.06418  1.229  0.1109
4.856e+09  0.02455  -0.6382  -0.05708  0.02908  -0.002715  0.009364  0.6321  -1.073
4.86e+09  -0.5226  -0.3118  0.01041  -0.03176  -0.00691  0.02299  -0.5904  -1.002
4.864e+09  -0.5794  0.3646  -0.01063  0.04056  0.03194  0.001884  -1.143  0.131
4.868e+09  0.02668  0.7246  0.01991  0.02928  -0.01414  -0.02055  -0.3301  1.085
4.872e+09  0.6546  0.345  0.0522  -0.09054  0.02202  0.05187  0.7389  0.7707
4.876e+09  0.5774  -0.506  -0.04025  -0.05555  0.00771  0.04772  1.027  -0.3201
4.88e+09  -0.1942  -0.742  -0.04343  -0.0002351  -0.002399  -0.04052  0.1517  -1.086
4.884e+09  -0.7612  -0.2565  0.003283  -0.008586  0.02481  -0.006929  -0.8458  -0.638
4.888e+09  -0.5506  0.6438  -0.005833  0.04267  -0.03135  -0.01671  -0.937  0.5557
4.892e+09  0.325  0.776  0.02423  -0.0191  -0.04147  -0.01346  0.04687  1.047
4.896e+09  0.8462  0.06371  -0.06034  -0.04527  -0.04365  -0.01418  0.7914  0.4599
4.9e+09  0.4103  -0.7167  0.001787  -0.03111  -0.03916  0.001483  0.8508  -0.5208
4.904e+09  -0.4693  -0.7085  0.001698  -0.04372  -0.01851  -0.0191  -0.1798  -0.8968
4.908e+09  -0.8493  0.1174  -0.009516  0.0413  0.08366  0.03231  -0.9038  -0.2975
4.912e+09  -0.2372  0.8043  -0.0217  0.07149  -0.006705  -0.005229  -0.6281  0.5927
4.916e+09  0.6912  0.6001  -0.02418  -0.04101  0.04358  -0.02632  0.2398  0.9071
4.92e+09  0.8304  -0.3164  0.04249  0.04422  -0.05711  -0.01392  0.8524  0.1819
4.924e+09  0.08012  -0.898  -0.04575  -0.009965  0.0009026  -0.007271  0.532  -0.7294
4.928e+09  -0.7002  -0.4292  -0.04019  0.01834  -0.03004  -0.01672  -0.3761  -0.8513
4.932e+09  -0.7663  0.4772  -0.0777  0.0004743  0.0371  -0.005542  -0.9443  -0.02405
4.936e+09  0.1177  0.8637  -0.01411  0.02077  0.002633  -0.01289  -0.4068  0.7784
4.94e+09  0.8157  0.3173  0.05584  -0.0114  -0.01342  -0.07113  0.5003  0.7952
4.944e+09  0.655  -0.6153  -0.005375  -0.03779  0.04073  -0.04057  0.8047  0.002316
4.948e+09  -0.219  -0.7799  -0.02555  0.01063  -0.02008  0.01946  0.376  -0.7083
4.952e+09  -0.808  -0.1808  0.07119  0.0363  0.06074  -0.001904  -0.5273  -0.7029
4.956e+09  -0.5206  0.6374  0.05151  -0.07912  0.03349  0.004692  -0.795  0.09206
4.96e+09  0.3464  0.7526  0.03115  0.04958  -0.05466  -0.01722  -0.2398  0.7219
4.964e+09  0.7858  -0.001182  -0.0123  -0.04879  0.007738  -0.01199  0.5392  0.5591
4.968e+09  0.3473  -0.6232  -0.0006722  -0.03379  0.02041  0.01595  0.8433  -0.2302
4.972e+09  -0.3895  -0.5824  -0.003651  -0.02383  0.00421  0.02168  0.2225  -0.7564
4.976e+09  -0.7035  0.04181  -0.1369  -0.03407  0.01017  -0.007615  -0.5852  -0.4985
4.98e+09  -0.2025  0.6265  -0.01346  -0.01401  0.05161  -0.01568  -0.7835  0.302
4.984e+09  0.5268  0.4843  0.03807  0.009178  -0.02337  0.07053  -0.1126  0.7948
4.988e+09  0.5938  -0.2025  0.05371  0.09026  -0.002846  -0.03713  0.8049  0.5237
