# Hz S RI R 50
4e+09  1.794  1.815  0.1341  2.808  -1.039  -0.2728  -0.1166  -1.511
4.004e+09  1.451  -0.5574  -0.01344  -0.02685  0.02686  -0.005555  1.667  -1.417
4.008e+09  0.2046  -1.594  -0.01925  0.01023  0.03046  -0.04148  -0.5717  -2.012
4.012e+09  -1.344  -0.7703  0.05571  0.01003  -0.01011  -0.01702  -2.16  -0.2842
4.016e+09  -1.349  0.8932  -0.01573  0.02778  0.02063  0.01282  -1.165  1.689
4.02e+09  0.2799  1.598  0.05155  0.06123  0.01494  0.08609  0.944  1.814
4.024e+09  1.624  0.4597  -0.0777  0.04577  -0.04594  -0.02403  2.027  0.00953
4.028e+09  1.159  -1.229  0.03201  0.005038  -0.02306  0.01717  0.8851  -1.96
4.032e+09  -0.652  -1.493  -0.05742  0.03858  -0.09869  0.04035  -1.436  -1.654
4.036e+09  -1.512  0.01488  0.02388  0.001502  -0.09496  -0.02005  -2.036  0.4614
4.04e+09  -0.7046  1.445  0.03  0.03807  -0.007954  -0.04362  -0.3743  2.11
4.044e+09  0.9453  1.189  -0.1234  0.0336  -0.01419  0.04281  1.643  1.308
4.048e+09  1.425  -0.4629  -0.1004  -0.0373  -0.01799  0.03249  1.93  -1.07
4.052e+09  0.3538  -1.467  0.04181  -0.07551  -0.0355  0.01774  -0.1048  -2.17
4.056e+09  -1.261  -0.8758  -0.03387  0.02649  0.0561  -0.02259  -2.184  -0.7978
4.06e+09  -1.219  0.6444  -0.03977  -0.02562  0.007287  -0.03007  -1.612  1.505
4.064e+09  -0.005257  1.397  -0.01951  -0.04717  -0.04021  0.0146  0.6092  2.142
4.068e+09  1.271  0.6704  -0.02221  -0.06771  0.04693  -0.01069  2.332  0.287
4.072e+09  1.133  -0.7997  0.009283  0.1066  0.0487  -0.03774  1.127  -1.921
4.076e+09  -0.2311  -1.333  0.0097  -0.02387  -0.01882  -0.03583  -1.215  -1.906
4.08e+09  -1.241  -0.4081  -0.02003  -0.03644  -0.06569  0.1376  -2.226  0.3307
4.084e+09  -0.9528  0.9367  -0.002465  -0.09245  -0.03166  -0.02756  -0.6992  2.153
4.088e+09  0.4932  1.23  0.0953  -0.003193  -0.05006  0.04194  1.566  1.377
4.092e+09  1.35  0.09413  0.01013  -0.05104  0.03607  -0.03465  2.04  -0.7418
4.096e+09  0.7618  -1.004  -0.01052  0.01448  -0.06384  0.0006045  0.0824  -2.08
4.1e+09  -0.5928  -1.117  0.1403  -0.04952  -0.03136  -0.02331  -1.873  -0.9935
4.104e+09  -1.2  0.00394  -0.009323  -0.0275  -0.04766  0.04018  -1.693  1.109
4.108e+09  -0.4781  1.121  -0.03311  -0.09842  0.001866  -0.09387  0.2838  2.068
4.112e+09  0.7777  0.9393  -0.03239  0.005641  -0.004504  0.04544  1.844  0.7222
4.116e+09  1.183  -0.3183  0.09754  0.01687  -0.05414  -0.07015  1.499  -1.37
4.12e+09  0.3219  -1.157  0.03444  -0.02282  0.009465  0.01355  -0.6636  -1.925
4.124e+09  -0.825  -0.7754  -0.03767  -0.03948  0.01578  0.01156  -1.925  -0.2445
4.128e+09  -1.072  0.4014  -0.02664  0.07647  0.01114  0.02355  -1.087  1.622
4.132e+09  -0.2506  1.117  -0.03312  0.02913  0.0018  0.06417  1.052  1.629
4.136e+09  0.929  0.6629  0.05137  -0.03247  -0.03646  -0.009418  1.834  -0.08497
4.14e+09  1.019  -0.4561  0.09274  -0.0003093  0.08306  -0.02634  0.8546  -1.673
4.144e+09  0.06722  -1.276  -0.03263  0.006065  0.03425  -0.01721  -1.104  -1.367
4.148e+09  -1.044  -0.6476  -0.0858  0.001498  -0.09338  0.01307  -1.746  0.2708
4.152e+09  -0.957  0.6034  0.01516  0.05703  0.02579  0.02175  -0.5206  1.825
4.156e+09  0.1429  1.19  -0.03999  -0.0327  -0.009066  0.004074  1.253  1.319
4.16e+09  1.054  0.4209  0.06644  0.02716  -0.02092  -0.02671  1.677  -0.5846
4.164e+09  0.8636  -0.8008  -0.03389  -0.0464  -0.06566  -0.0438  0.3048  -1.863
4.168e+09  -0.3413  -1.091  0.03126  -0.01238  -0.03326  0.01689  -1.416  -1.005
4.172e+09  -1.246  -0.2386  0.05007  0.05525  0.05142  -0.06458  -1.624  0.6773
4.176e+09  -0.8016  0.9303  0.1118  0.01536  0.1035  -0.01389  -0.1269  1.831
4.18e+09  0.4152  1.064  -0.005703  -0.004479  -0.006733  -0.01269  1.505  0.8298
4.184e+09  1.204  0.1136  0.02865  -0.03758  0.01983  -0.02742  1.543  -1.014
4.188e+09  0.6588  -1.026  -0.05993  -0.03524  0.01215  -0.02828  -0.1677  -1.79
4.192e+09  -0.6918  -1.111  0.08073  0.1242  0.04271  -0.02578  -1.597  -0.7364
4.196e+09  -1.308  0.02264  0.02293  -0.00645  0.008133  0.03046  -1.367  1.218
4.2e+09  -0.6102  1.172  0.02135  -0.1503  -0.03502  0.06177  0.4735  1.72
4.204e+09  0.8133  1.096  0.02407  -0.06412  -0.02844  0.008576  1.736  0.4705
4.208e+09  1.291  -0.2677  0.001829  0.11  -0.02878  -0.05126  1.251  -1.298
4.212e+09  0.3963  -1.363  -0.0174  0.04582  0.01967  -0.01133  -0.6394  -1.762
4.216e+09  -1.063  -0.9912  -0.03123  0.01026  0.02213  -0.0186  -1.899  -0.1306
4.22e+09  -1.409  0.5651  0.06124  -0.01582  -0.0549  -0.07554  -0.9186  1.681
4.224e+09  -0.06538  1.457  0.01766  -0.01299  -0.05417  0.02834  1.015  1.706
4.228e+09  1.28  0.6893  -0.07897  0.04219  0.04341  0.05894  1.972  -0.2189
4.232e+09  1.231  -0.8502  0.04069  -0.06106  0.04382  0.01029  0.7634  -1.843
4.236e+09  -0.2798  -1.478  0.08832  -0.0772  -0.02473  0.05972  -1.371  -1.611
4.24e+09  -1.421  -0.4954  0.09684  0.07286  0.04112  0.02391  -1.962  0.5091
4.244e+09  -1.068  1.146  -0.0211  0.02835  0.03875  0.01833  -0.3772  1.931
4.248e+09  0.5278  1.339  -0.02879  0.08548  0.02391  -0.006362  1.588  1.219
4.252e+09  1.472  0.1122  -0.04101  -0.03259  0.02173  -0.01292  1.81  -0.7894
4.256e+09  0.7099  -1.264  -0.03732  -0.03432  0.01218  0.003643  0.02317  -2.049
4.26e+09  -0.8743  -1.122  0.09454  0.03827  -0.01961  -0.04848  -1.861  -0.9322
4.264e+09  -1.454  0.2056  0.03609  -0.03519  -0.003524  0.03828  -1.621  1.298
4.268e+09  -0.4691  1.377  -0.008244  0.04881  0.005054  -0.01541  0.3609  2.06
4.272e+09  1.02  0.952  -0.04161  0.0422  0.04398  0.008134  1.961  0.5651
4.276e+09  1.28  -0.5292  0.001723  0.01031  0.00102  0.05654  1.411  -1.589
4.28e+09  0.1548  -1.397  -0.04322  -0.02149  0.04435  0.06515  -0.7869  -1.908
4.284e+09  -1.157  -0.7006  0.02969  0.001358  -0.00758  0.01244  -1.97  -0.02056
4.288e+09  -1.144  0.7052  0.009982  -0.02812  -0.04515  -0.02249  -0.9085  1.768
4.292e+09  0.1339  1.272  0.02165  0.04747  0.02632  -0.05674  1.323  1.558
4.296e+09  1.185  0.4881  0.000949  -0.06431  0.0186  -0.02393  1.966  -0.4815
4.3e+09  0.9285  -0.8062  0.02661  0.09678  0.03298  0.02356  0.4196  -1.89
4.304e+09  -0.3451  -1.142  -0.01001  -0.04975  -0.0477  0.007505  -1.515  -1.129
4.308e+09  -1.179  -0.2  -0.03031  0.01642  -0.003091  0.05474  -1.803  0.8287
4.312e+09  -0.7361  0.8285  -0.06049  -0.05851  0.0118  0.02372  -0.01025  1.893
4.316e+09  0.4706  1.06  -0.01441  0.009121  -0.008858  0.01419  1.547  0.8175
4.32e+09  1.132  0.143  0.0135  -0.07246  -0.02431  0.03389  1.386  -1.066
4.324e+09  0.614  -1.004  -0.02502  -0.07044  -0.03318  -0.008187  -0.3622  -1.753
4.328e+09  -0.5249  -0.9162  0.1339  0.02173  -0.07002  -0.07452  -1.719  -0.5164
4.332e+09  -1.078  0.04786  -0.006341  0.01122  0.03547  0.008768  -1.076  1.304
4.336e+09  -0.4494  1.035  0.02992  0.004087  -0.09863  0.01856  0.7146  1.54
4.34e+09  0.6128  0.8203  0.01565  0.001974  0.0003754  -0.005226  1.569  0.03491
4.344e+09  1.041  -0.2744  -0.03031  -0.02875  0.02649  -0.0242  0.8025  -1.366
4.348e+09  0.2827  -1.052  -0.04052  0.02906  0.0179  0.07736  -0.9924  -1.267
4.352e+09  -0.8528  -0.6654  -0.02302  0.03176  0.01318  -0.03125  -1.49  0.324
4.356e+09  -0.9711  0.4329  -0.03636  -0.005866  0.007573  -0.05458  -0.5417  1.512
4.36e+09  -0.08735  0.9886  0.007081  0.004138  -0.009921  0.002298  1.211  1.155
4.364e+09  0.8797  0.527  0.02456  -0.05672  -0.045  0.007584  1.44  -0.5357
4.368e+09  0.9539  -0.5788  0.0407  0.08176  0.02466  0.01675  0.08668  -1.539
4.372e+09  -0.09024  -1.026  0.1075  0.06407  0.04589  -0.0604  -1.211  -0.7363
4.376e+09  -0.9823  -0.446  -0.04187  0.07966  0.04409  -0.03828  -1.244  0.8351
4.38e+09  -0.7683  0.6425  0.03242  -0.1051  -0.04086  0.004577  0.1376  1.497
4.384e+09  0.2566  0.9428  -0.002551  -0.02022  -0.02613  0.02181  1.375  0.6046
4.388e+09  1.048  0.2592  -0.02579  -0.04283  -0.05061  0.01527  1.175  -0.9647
4.392e+09  0.6793  -0.7641  0.02752  -0.05616  -0.03941  -0.06515  -0.376  -1.445
4.396e+09  -0.3538  -1.002  -0.0422  -0.03156  -0.01233  -0.05677  -1.481  -0.3086
4.4e+09  -0.9997  -0.2097  0.001357  0.02642  0.05453  0.002541  -0.9262  1.287
4.404e+09  -0.5638  0.853  -0.01568  -0.04435  -0.03572  -0.03295  0.6935  1.298
4.408e+09  0.5365  0.8489  0.1001  -0.08406  0.0469  -0.01656  1.502  0.08382
4.412e+09  1.072  -0.07251  0.002474  0.02346  -0.01069  -0.06296  0.7346  -1.315
4.416e+09  0.3818  -0.9697  0.05201  -0.02783  0.03643  0.08028  -0.7797  -1.247
4.42e+09  -0.6689  -0.7255  0.03233  -0.05412  -0.06585  0.03559  -1.484  0.07986
4.424e+09  -0.9682  0.319  0.02803  -0.002793  0.0622  0.02391  -0.5023  1.388
4.428e+09  -0.1988  1.076  0.001182  0.0461  0.01126  -0.0128  0.9755  1.174
4.432e+09  0.8944  0.6787  -0.09683  5.755e-05  -0.1194  0.01061  1.398  -0.4481
4.436e+09  1.007  -0.4667  0.05119  0.02883  -0.0807  0.01861  0.2672  -1.515
4.44e+09  -0.007677  -1.088  0.02336  -0.02855  0.0248  0.09917  -1.151  -1.057
4.444e+09  -0.9576  -0.4507  -0.01023  0.08393  0.0947  -0.02492  -1.398  0.6044
4.448e+09  -0.9123  0.5873  -0.002629  0.01406  0.04756  -0.001061  -0.06686  1.483
4.452e+09  0.1731  1.05  -0.04305  0.08919  -0.03828  0.02949  1.354  0.7126
4.456e+09  1.035  0.348  0.0405  -0.01273  0.01616  -0.0523  1.314  -0.8456
4.46e+09  0.7126  -0.7896  0.04286  0.01309  0.03617  -0.007688  -0.2768  -1.511
4.464e+09  -0.391  -1.024  0.003199  -0.03068  0.02901  0.02465  -1.522  -0.4354
4.468e+09  -1.042  -0.1106  0.03617  -0.04612  0.01963  -0.04021  -1.182  1.11
4.472e+09  -0.5705  0.898  0.02135  -0.03396  0.04614  0.03745  0.4746  1.479
4.476e+09  0.5998  0.9726  -0.03484  0.06425  0.01313  -0.04997  1.62  0.1123
4.48e+09  1.141  -0.03364  -0.07753  0.008895  0.008543  0.01578  0.9  -1.303
4.484e+09  0.4072  -0.9583  0.016  -0.01976  -0.04645  0.03895  -0.806  -1.3
4.488e+09  -0.739  -0.8436  -0.01248  -0.0184  -0.01419  0.05166  -1.617  0.1365
4.492e+09  -0.9941  0.2216  -0.08347  0.1092  0.0008041  0.008904  -0.5877  1.473
4.496e+09  -0.2415  1.032  0.02017  0.02469  0.07147  0.04951  1.192  1.212
4.5e+09  0.8495  0.6614  -0.0558  -0.0008497  -0.0489  0.02339  1.502  -0.5248
4.504e+09  0.9313  -0.3  0.007503  0.08779  0.01837  -0.04082  0.2833  -1.56
4.508e+09  0.07056  -0.9306  0.1281  0.03692  0.05548  0.055  -1.264  -1.017
4.512e+09  -0.7978  -0.555  -0.0636  0.01392  0.06545  -0.05452  -1.426  0.7119
4.516e+09  -0.7833  0.4725  0.05635  0.003972  -0.008508  0.002226  -0.04906  1.596
4.52e+09  -0.01275  0.966  -0.07746  0.02108  2.971e-05  -0.00189  1.442  0.7182
4.524e+09  0.8599  0.4268  0.002944  -0.07744  -0.002703  -0.0179  1.248  -0.9465
4.528e+09  0.7263  -0.5887  -0.02655  -0.0913  -0.02541  -0.01351  -0.3597  -1.589
4.532e+09  -0.1934  -0.8547  -0.04255  0.04955  0.03415  -0.01822  -1.524  -0.3868
4.536e+09  -0.8561  -0.2613  0.0009089  0.01203  -0.02483  -0.06336  -1.048  1.062
4.54e+09  -0.686  0.6749  -0.006207  0.03408  -0.06183  -0.002366  0.5974  1.461
4.544e+09  0.2682  0.9087  0.005995  -0.117  0.007542  -0.005731  1.471  0.1349
4.548e+09  0.9279  0.1292  -0.01888  -0.01896  -0.001917  0.005649  0.8007  -1.15
4.552e+09  0.4945  -0.7365  -0.05955  0.03667  0.02755  -0.01446  -0.7373  -1.104
4.556e+09  -0.4014  -0.7873  0.02774  0.02462  -0.01579  0.01684  -1.433  0.1155
4.56e+09  -0.9095  -0.05559  -0.112  -0.0368  -0.01698  0.006628  -0.4622  1.252
4.564e+09  -0.3825  0.8004  -0.03639  -0.1061  0.05583  0.01158  0.8164  1.011
4.568e+09  0.5321  0.7754  0.009341  0.005855  -0.005017  0.03496  1.294  -0.3203
4.572e+09  0.887  -0.1008  -0.02267  -0.006146  -0.0209  0.03336  0.297  -1.269
4.576e+09  0.36  -0.8056  -3.784e-05  -0.03115  0.03047  -0.02912  -0.9912  -0.9125
4.58e+09  -0.5289  -0.6836  -0.03676  0.006908  -0.03614  -0.03107  -1.181  0.5154
4.584e+09  -0.9205  0.1596  0.01545  0.06549  0.04041  0.003506  -0.06474  1.289
4.588e+09  -0.249  0.93  -0.06348  -0.01582  0.004331  -0.01065  1.098  0.6793
4.592e+09  0.6853  0.6245  -0.03713  -0.06337  -0.0669  0.00583  1.02  -0.6107
4.596e+09  0.8731  -0.3069  -0.03911  0.04273  0.03137  -0.009018  -0.1654  -1.201
4.6e+09  0.0904  -0.9371  -0.04353  -0.0393  0.03702  0.006374  -1.055  -0.4424
4.604e+09  -0.8384  -0.571  -0.01027  -0.01405  -0.002129  -0.03195  -0.9404  0.7335
4.608e+09  -0.8981  0.4736  -0.03135  0.01347  0.08285  0.03753  0.3058  1.213
4.612e+09  0.05639  0.9811  -0.03867  0.02871  0.02251  -0.03497  1.21  0.1974
4.616e+09  0.8615  0.4196  -0.02822  -0.006858  0.03497  -0.04477  0.7578  -0.9625
4.62e+09  0.7553  -0.6035  0.009303  0.05535  -0.0146  0.009029  -0.4944  -1.091
4.624e+09  -0.277  -0.9402  -0.07868  0.07918  -0.01414  -0.0004485  -1.152  -0.06427
4.628e+09  -0.9758  -0.2289  -0.04382  -0.1162  -0.02458  -0.00414  -0.6118  1.051
4.632e+09  -0.6548  0.7447  -0.01417  -0.00277  -0.06236  0.03531  0.6479  1.085
4.636e+09  0.3907  0.8542  0.02553  -0.01499  -0.05857  -0.01419  1.234  -0.0969
4.64e+09  0.8898  0.002805  -0.03008  0.01853  -0.05301  0.02894  0.5051  -1.158
4.644e+09  0.4099  -0.9097  -0.06815  0.01204  -0.02878  0.02048  -0.7656  -0.8381
4.648e+09  -0.6091  -0.7455  -0.0008077  -0.05811  0.03601  -0.02543  -1.13  0.3259
4.652e+09  -0.9179  0.1664  -0.002026  0.1075  -0.02275  -0.01389  -0.1902  1.16
4.656e+09  -0.2805  0.9031  -0.09851  0.009943  0.02584  -0.01366  1.067  0.68
4.66e+09  0.6725  0.5732  0.05248  -0.04056  0.02083  0.008787  1.106  -0.5431
4.664e+09  0.8478  -0.4412  -0.1246  -0.003055  -0.0009567  0.01712  -0.0469  -1.233
4.668e+09  -0.02359  -0.8358  -0.07231  -0.05078  -0.01524  0.006955  -1.103  -0.5532
4.672e+09  -0.8281  -0.3728  0.03545  -0.02824  0.02704  0.02051  -0.9498  0.7488
4.676e+09  -0.7  0.5192  0.03117  0.006812  0.004194  0.059  0.2248  1.23
4.68e+09  0.1091  0.8342  0.00169  -0.03152  0.03996  0.006215  1.218  0.3481
4.684e+09  0.787  0.2434  0.027  0.008173  0.006996  0.0215  0.888  -0.9343
4.688e+09  0.617  -0.5791  0.05537  -0.0372  0.02578  0.008609  -0.5252  -1.174
4.692e+09  -0.3396  -0.7836  0.01973  0.02623  -0.005024  0.01656  -1.283  -0.05553
4.696e+09  -0.8354  -0.07742  -0.03412  0.03308  -0.06834  0.02343  -0.6001  1.152
4.7e+09  -0.4179  0.6685  -0.0651  0.0426  0.02133  0.02258  0.7982  1.006
4.704e+09  0.3834  0.6344  -0.0558  -0.02018  -0.013  0.01907  1.294  -0.2535
4.708e+09  0.7536  -0.05499  -0.02486  0.02247  -0.01587  -0.008692  0.212  -1.284
4.712e+09  0.285  -0.6548  -0.03546  0.02683  -0.01089  0.01641  -0.9412  -0.7509
4.716e+09  -0.4882  -0.5949  -0.0235  0.05374  -0.05656  0.01981  -1.204  0.5062
4.72e+09  -0.7034  0.1918  -0.06096  0.0303  0.06279  0.07088  -0.1329  1.224
4.724e+09  -0.1274  0.6938  -0.05579  -0.02533  -0.005078  -0.03448  1.256  0.5913
4.728e+09  0.5522  0.434  0.1329  0.01995  0.01587  0.05135  1.036  -0.7422
4.732e+09  0.635  -0.2403  0.002288  -0.01482  -0.02241  -0.0237  -0.2074  -1.271
4.736e+09  0.04669  -0.7022  -0.08262  0.00122  -0.05504  -0.02858  -1.187  -0.2272
4.74e+09  -0.5906  -0.3604  -0.05706  -0.04142  0.06636  -0.05225  -0.7688  0.9969
4.744e+09  -0.6138  0.3568  -0.04047  0.06992  0.02359  -0.006155  0.4313  1.077
4.748e+09  0.09666  0.641  0.03416  -0.001955  -0.009744  -0.0633  1.275  0.1096
4.752e+09  0.7101  0.3016  0.02886  0.023  -0.008958  0.02307  0.5941  -1.03
4.756e+09  0.57  -0.3813  -0.004065  0.05306  0.02565  0.05522  -0.6477  -0.9745
4.76e+09  -0.1184  -0.6183  0.01111  -0.03808  0.0001817  0.023  -1.198  0.1268
4.764e+09  -0.6516  -0.2004  0.06449  -0.0837  0.01038  0.008652  -0.4475  1.002
4.768e+09  -0.4558  0.4848  0.009533  -0.002302  0.04433  0.07574  0.6832  0.876
4.772e+09  0.1559  0.6051  -0.03333  -0.01065  0.01226  0.006579  0.9898  -0.332
4.776e+09  0.7459  0.153  0.02998  0.01025  -0.02032  -0.02352  0.2489  -0.9616
4.78e+09  0.4155  -0.5581  -0.00762  -0.01884  0.03603  -0.008185  -0.7863  -0.643
4.784e+09  -0.2811  -0.6002  -0.101  -0.05802  0.007208  0.04438  -1.008  0.4486
4.788e+09  -0.7011  -0.03942  0.03198  0.04431  -0.02166  0.02592  -0.1134  1.02
4.792e+09  -0.3444  0.6283  -0.01181  -0.003108  0.05575  -0.002636  0.8837  0.5048
4.796e+09  0.3672  0.6128  0.0234  -0.01495  0.01345  -0.03106  0.9301  -0.5122
4.8e+09  0.6591  -0.04118  -0.008558  0.0519  -0.1301  0.07426  -0.1189  -0.9557
4.804e+09  0.2908  -0.6152  -0.0199  -0.05101  -0.03637  0.0418  -0.9464  -0.4212
4.808e+09  -0.4358  -0.5809  0.0008565  -0.03646  -0.02628  -0.01111  -0.7954  0.58
4.812e+09  -0.7022  0.1302  -0.01842  0.04546  -0.004331  0.02099  0.1426  0.9748
4.816e+09  -0.2796  0.7058  -0.01721  -0.03973  0.03432  -0.0009333  1.072  0.3476
4.82e+09  0.5385  0.5448  0.04616  0.01643  -0.04394  -0.04192  0.6499  -0.7651
4.824e+09  0.7394  -0.2463  0.002187  -0.01171  -0.001735  0.0349  -0.2582  -0.8846
4.828e+09  0.153  -0.8025  -0.04196  -0.01279  -0.06733  0.08472  -0.9726  -0.1642
4.832e+09  -0.6465  -0.5116  -0.03029  0.02023  -0.02155  -0.003538  -0.5392  0.7664
4.836e+09  -0.8105  0.342  0.1303  -0.08114  0.03405  -0.006423  0.461  0.8571
4.84e+09  -0.04001  0.84  -0.02514  0.02717  -0.01534  -0.02162  0.9917  -0.07233
4.844e+09  0.7719  0.3757  -0.03897  -0.01514  0.005009  -0.02321  0.4981  -0.8148
4.848e+09  0.7432  -0.5559  0.0368  0.01511  -0.0008254  0.0322  -0.5373  -0.7825
4.852e+09  -0.1241  -0.9268  0.01611  0.01137  -0.01584  -0.03989  -0.9723  0.1016
4.856e+09  -0.9335  -0.2807  -0.009444  0.04987  -0.03745  -0.05285  -0.3795  0.9119
4.86e+09  -0.6617  0.6887  0.04948  -0.04217  -0.01743  -0.03512  0.6577  0.7609
4.864e+09  0.2784  0.9119  -0.008648  -0.04651  0.0128  -0.06391  1.018  -0.2783
4.868e+09  0.9542  0.1844  -0.01687  0.03374  0.04654  0.02747  0.2402  -1.024
4.872e+09  0.5345  -0.7731  0.06222  -0.07057  -0.01333  0.03503  -0.8423  -0.745
4.876e+09  -0.4889  -0.8484  -0.0346  0.003542  0.03844  -0.03004  -1.016  0.4096
4.88e+09  -0.9342  0.1612  -0.01419  0.02861  0.03674  -0.00766  -0.03492  1.084
4.884e+09  -0.344  0.8512  0.03616  -0.05505  -0.02099  0.007071  0.9328  0.5975
4.888e+09  0.6432  0.7043  0.05655  0.01241  -0.002538  0.0008031  0.9636  -0.605
4.892e+09  0.9028  -0.3341  -0.04153  -0.002108  -0.05446  0.0341  -0.1469  -1.085
4.896e+09  0.119  -0.9085  0.03579  0.06038  -0.01294  -0.02911  -1.081  -0.3502
4.9e+09  -0.7868  -0.5  -0.01438  -0.01171  -0.001126  0.03773  -0.7707  0.7374
4.904e+09  -0.7473  0.4205  -0.0538  -0.02626  -0.06934  0.004044  0.3517  1.076
4.908e+09  0.08519  0.9197  0.02015  -0.004515  -0.01382  0.02651  1.153  0.1532
4.912e+09  0.7493  0.3686  0.01021  0.03394  0.0217  0.01012  0.6311  -0.9981
4.916e+09  0.6241  -0.4982  0.0709  0.03071  -0.02621  0.01878  -0.6544  -0.9446
4.92e+09  -0.2179  -0.724  0.009917  0.06855  0.06109  0.01121  -1.164  0.1638
4.924e+09  -0.753  -0.2226  0.03989  0.01079  0.01258  -0.05665  -0.4352  1.129
4.928e+09  -0.4103  0.5976  -0.03266  -0.06198  0.006227  -0.01933  0.8458  0.8565
4.932e+09  0.2498  0.6235  -0.01521  0.01365  -0.01372  0.0248  1.054  -0.413
4.936e+09  0.681  0.0301  -0.0757  -0.01208  -0.02347  0.02934  0.1167  -1.187
4.94e+09  0.3575  -0.5536  0.04715  -0.06189  -0.01989  -0.01178  -0.9727  -0.5954
4.944e+09  -0.2728  -0.6027  -0.01233  -0.0009749  0.03855  -0.01742  -1.003  0.6206
4.948e+09  -0.6057  -0.007597  -0.0276  -0.02386  0.01872  -0.05207  0.215  1.096
4.952e+09  -0.2844  0.5532  0.003275  -0.04434  -0.04413  -0.009274  1.13  0.3718
4.956e+09  0.3626  0.4187  0.05745  -0.03322  -0.008211  -0.004453  0.7336  -0.8302
4.96e+09  0.6002  -0.09219  -0.06029  -0.08235  -0.04685  -0.04047  -0.4385  -0.9685
4.964e+09  0.1715  -0.5626  0.109  -0.00654  0.0317  0.0216  -1.051  -0.02347
4.968e+09  -0.4109  -0.3688  0.01563  -0.02716  0.0123  -0.04314  -0.4997  0.8571
4.972e+09  -0.4715  0.1095  0.1155  0.06107  -0.01624  -0.03492  0.4933  0.8361
4.976e+09  -0.1037  0.5387  0.06761  -0.01586  0.09245  0.01754  1.035  -0.1419
4.98e+09  0.402  0.3607  -0.02484  0.01193  -0.0694  -0.01241  0.3075  -0.9075
4.984e+09  0.4811  -0.2305  0.02473  0.002856  0.03961  -0.005167  -0.6314  -0.6773
4.988e+09  0.07288  -0.485  0.09941  0.02536  -0.03381  -0.04367  -0.8989  0.2264
