# Hz S RI R 50
4e+09  0.6167  -1.654  0.5862  -1.528  -1.508  -0.7551  -0.1217  1.736
4.004e+09  -0.2434  -0.0463  0.2313  -1.937  -1.274  -0.9028  -0.4054  0.2943
4.008e+09  -0.0463  0.183  -1.704  -0.986  -1.359  0.6914  0.1535  0.6004
4.012e+09  0.07957  0.2735  -1.721  1.101  -0.01379  1.497  0.6758  0.06274
4.016e+09  0.3356  0.07415  0.2594  1.835  1.326  0.6661  0.4759  -0.5757
4.02e+09  0.1179  -0.2333  1.781  0.653  1.196  -0.8636  -0.2579  -0.6663
4.024e+09  -0.1117  -0.2867  1.248  -1.314  -0.2091  -1.493  -0.7294  -0.01071
4.028e+09  -0.3934  0.0597  -0.6093  -1.689  -1.339  -0.4334  -0.2921  0.7014
4.032e+09  -0.1282  0.413  -1.785  -0.3045  -0.9987  1.082  0.4811  0.5546
4.036e+09  0.3209  0.3487  -1.019  1.529  0.5038  1.334  0.7532  -0.09681
4.04e+09  0.3837  -0.1675  0.8529  1.613  1.415  0.1952  0.1963  -0.7817
4.044e+09  0.1208  -0.3812  1.807  -0.132  0.8284  -1.114  -0.5807  -0.4911
4.048e+09  -0.3444  -0.1977  0.8707  -1.643  -0.6066  -1.205  -0.7015  0.4072
4.052e+09  -0.3375  0.2488  -1.054  -1.462  -1.312  0.00983  0.06113  0.762
4.056e+09  0.08269  0.3918  -1.834  0.3595  -0.5845  1.135  0.7515  0.3427
4.06e+09  0.3767  0.1095  -0.5562  1.807  0.6644  1.071  0.5365  -0.4701
4.064e+09  0.2864  -0.3343  1.356  1.158  1.258  -0.1455  -0.2703  -0.7318
4.068e+09  -0.2215  -0.4076  1.715  -0.6726  0.3841  -1.272  -0.6907  -0.1526
4.072e+09  -0.4738  0.02408  0.1313  -1.794  -0.9526  -0.9063  -0.4416  0.6485
4.076e+09  -0.1778  0.4678  -1.511  -0.9399  -1.334  0.3999  0.3383  0.6828
4.08e+09  0.3127  0.3292  -1.559  0.7869  -0.319  1.416  0.768  0.02563
4.084e+09  0.4977  -0.1583  0.1282  1.853  1.067  0.8895  0.1806  -0.6407
4.088e+09  0.1234  -0.459  1.679  0.6427  1.221  -0.6418  -0.3713  -0.4067
4.092e+09  -0.3955  -0.2647  1.343  -1.293  0.05431  -1.376  -0.545  0.1625
4.096e+09  -0.4406  0.2325  -0.5023  -1.821  -1.177  -0.7525  -0.08899  0.5507
4.1e+09  -0.001145  0.3997  -1.793  -0.4644  -1.178  0.8142  0.6116  0.2838
4.104e+09  0.4507  0.1425  -1.143  1.396  0.2004  1.385  0.4735  -0.3082
4.108e+09  0.3109  -0.3159  0.8086  1.62  1.328  0.4565  -0.08292  -0.5033
4.112e+09  -0.1923  -0.3634  1.828  0.0107  1.072  -1.011  -0.4542  -0.08832
4.116e+09  -0.3735  -0.007318  0.8219  -1.659  -0.4604  -1.332  -0.1871  0.33
4.12e+09  -0.1706  0.3825  -1.161  -1.547  -1.361  -0.138  0.1083  0.3384
4.124e+09  0.2505  0.293  -1.9  0.315  -0.7177  1.114  0.2897  -0.04144
4.128e+09  0.3719  -0.1213  -0.4521  1.806  0.6401  1.185  0.0995  -0.2304
4.132e+09  0.03093  -0.3323  1.342  1.16  1.431  -0.1139  -0.139  -0.1872
4.136e+09  -0.2416  -0.1757  1.622  -0.7274  0.4928  -1.256  -0.2127  0.1596
4.14e+09  -0.2764  0.1447  -0.01275  -1.838  -0.9231  -1.167  -0.02544  0.2324
4.144e+09  -0.04156  0.2929  -1.611  -0.8783  -1.345  0.2621  0.0479  0.142
4.148e+09  0.2921  0.1589  -1.495  1.131  -0.327  1.342  0.1057  0.1353
4.152e+09  0.1827  -0.08883  0.3569  1.677  1.086  0.9556  0.1656  -0.04438
4.156e+09  -0.01115  -0.1195  1.693  0.4195  1.398  -0.4692  -0.03799  -0.1238
4.16e+09  -0.08737  -0.07954  1.175  -1.313  0.1226  -1.321  -0.01565  -0.1744
4.164e+09  -0.09342  0.05753  -0.7213  -1.75  -1.229  -0.7492  -0.1953  -0.01468
4.168e+09  -0.02719  0.168  -1.776  -0.05282  -1.234  0.763  -0.1491  0.1111
4.172e+09  0.1354  0.09156  -0.978  1.553  0.1047  1.355  -0.0117  0.1561
4.176e+09  0.1493  -0.0526  1.025  1.487  1.278  0.4131  0.2323  0.06829
4.18e+09  0.03787  -0.07446  1.732  -0.2197  0.971  -0.9071  0.09882  -0.1443
4.184e+09  -0.09114  -0.058  0.5986  -1.646  -0.4338  -1.273  -0.1679  -0.1792
4.188e+09  -0.1488  0.0148  -1.091  -1.235  -1.346  -0.2424  -0.2582  0.09613
4.192e+09  -0.01657  0.1359  -1.64  0.5122  -0.8883  1.046  0.1012  0.2671
4.196e+09  0.08979  0.07962  -0.2467  1.669  0.5741  1.218  0.2444  0.1493
4.2e+09  0.188  -0.1116  1.561  0.9899  1.337  -0.02088  0.179  -0.2724
4.204e+09  0.1046  -0.08828  1.537  -0.8287  0.717  -1.194  -0.09493  -0.3702
4.208e+09  -0.07413  -0.1124  -0.1472  -1.757  -0.7522  -1.122  -0.3153  -0.05169
4.212e+09  -0.2052  0.04417  -1.718  -0.5771  -1.359  0.1507  -0.2383  0.294
4.216e+09  -0.04052  0.2367  -1.328  1.112  -0.4641  1.376  0.3196  0.2872
4.22e+09  0.2062  0.1676  0.585  1.765  0.9433  0.9729  0.2936  -0.05163
4.224e+09  0.236  -0.1143  1.714  0.2822  1.271  -0.4518  -0.0156  -0.4113
4.228e+09  -0.006893  -0.2116  1.073  -1.435  0.1856  -1.284  -0.4342  -0.2732
4.232e+09  -0.2769  -0.141  -0.7474  -1.497  -1.056  -0.7408  -0.2591  0.2524
4.236e+09  -0.1722  0.2154  -1.732  0.1302  -1.146  0.6077  0.2827  0.3534
4.24e+09  0.08845  0.2399  -0.8284  1.398  0.02846  1.343  0.2808  0.07752
4.244e+09  0.313  -0.02399  1.056  1.415  1.221  0.5408  0.08451  -0.3794
4.248e+09  0.1297  -0.2681  1.596  -0.4281  0.9583  -0.744  -0.3267  -0.3091
4.252e+09  -0.1837  -0.261  0.3945  -1.623  -0.3173  -1.148  -0.4504  0.2457
4.256e+09  -0.3249  0.04266  -1.215  -1.088  -1.068  -0.4482  0.02903  0.4235
4.26e+09  -0.0207  0.3133  -1.477  0.6607  -0.819  0.8761  0.5291  0.1113
4.264e+09  0.2903  0.1349  -0.0471  1.548  0.4425  1.123  0.2657  -0.4423
4.268e+09  0.3097  -0.1463  1.277  0.7219  1.139  0.1079  -0.1863  -0.4747
4.272e+09  -0.006914  -0.3552  1.336  -0.8123  0.6751  -0.9593  -0.491  -0.04752
4.276e+09  -0.358  -0.1106  -0.1484  -1.607  -0.5785  -0.9752  -0.2716  0.4532
4.28e+09  -0.2514  0.2316  -1.333  -0.5727  -1.13  -0.06272  0.3341  0.4547
4.284e+09  0.1548  0.3526  -1.21  1.111  -0.5175  1.12  0.5649  -0.127
4.288e+09  0.3737  0.00679  0.4261  1.46  0.6981  0.9063  0.14  -0.5453
4.292e+09  0.2268  -0.3215  1.518  0.2603  1.207  -0.286  -0.4926  -0.2826
4.296e+09  -0.226  -0.3134  0.8264  -1.164  0.2847  -1.117  -0.5146  0.2785
4.3e+09  -0.3598  -0.01013  -0.7836  -1.267  -0.8724  -0.7712  0.1555  0.5547
4.304e+09  -0.07734  0.4035  -1.561  0.02655  -1.109  0.3783  0.5517  0.1362
4.308e+09  0.2405  0.3089  -0.6847  1.389  -0.1723  1.112  0.4124  -0.336
4.312e+09  0.3534  -0.1126  0.9522  1.112  0.9288  0.6583  -0.2199  -0.4825
4.316e+09  0.01432  -0.3527  1.549  -0.2997  1.038  -0.5916  -0.5635  -0.1366
4.32e+09  -0.2376  -0.1293  0.4863  -1.459  -0.07194  -1.157  -0.2195  0.5632
4.324e+09  -0.3131  0.2263  -1.225  -1.06  -0.9811  -0.5639  0.2219  0.5015
4.328e+09  0.04549  0.3707  -1.423  0.5398  -1.056  0.7187  0.414  0.01983
4.332e+09  0.3238  0.109  -0.09887  1.551  0.204  1.186  0.1656  -0.3385
4.336e+09  0.1695  -0.3263  1.351  0.8377  1.145  0.3909  -0.2314  -0.4082
4.34e+09  -0.2228  -0.3543  1.267  -0.8722  0.8462  -0.9199  -0.491  0.1298
4.344e+09  -0.3583  0.09551  -0.1357  -1.443  -0.4238  -1.155  -0.1301  0.4862
4.348e+09  -0.1639  0.3401  -1.469  -0.3986  -1.235  -0.1587  0.3764  0.3815
4.352e+09  0.2419  0.2805  -1.063  1.109  -0.7089  1.114  0.4024  -0.1342
4.356e+09  0.4013  -0.05667  0.5301  1.431  0.6574  1.088  0.1089  -0.4003
4.36e+09  0.08219  -0.3173  1.57  0.0622  1.209  -0.0884  -0.287  -0.2117
4.364e+09  -0.2456  -0.2045  0.7973  -1.337  0.4793  -1.122  -0.4443  0.1347
4.368e+09  -0.24  0.1319  -0.7418  -1.289  -0.8136  -0.933  -0.03513  0.316
4.372e+09  -0.009137  0.2288  -1.574  0.2301  -1.184  0.2582  0.223  0.2535
4.376e+09  0.1878  0.1184  -0.5865  1.416  -0.1969  1.15  0.22  -0.1033
4.38e+09  0.2069  -0.1547  1.088  1.11  0.8894  0.7548  -0.005101  -0.1986
4.384e+09  0.02487  -0.2287  1.5  -0.4145  1.01  -0.5154  -0.2522  -0.1303
4.388e+09  -0.241  -0.05449  0.2285  -1.485  0.002673  -1.175  -0.2024  0.0906
4.392e+09  -0.2163  0.168  -1.162  -0.8877  -0.965  -0.5615  0.0794  0.327
4.396e+09  0.02149  0.2677  -1.229  0.7136  -0.971  0.6397  0.302  0.1543
4.4e+09  0.2394  0.381  0.3798  1.504  0.08651  1.353  0.7382  0.07521
4.404e+09  0.1812  -0.1527  1.387  0.6317  1.185  0.3302  0.07193  -0.2783
4.408e+09  0.04314  -0.199  1.156  -1.011  0.9247  -0.9186  -0.2669  -0.1553
4.412e+09  -0.2648  -0.1442  -0.2732  -1.566  -0.3615  -1.155  -0.3344  0.194
4.416e+09  -0.1913  0.02366  -1.348  -0.3858  -1.181  -0.2313  0.02773  0.2403
4.42e+09  0.003468  0.1995  -0.9152  1.167  -0.7645  0.9152  0.2679  0.1723
4.424e+09  0.2389  0.07802  0.5604  1.379  0.5104  1.041  0.2697  -0.1809
4.428e+09  0.1627  -0.1142  1.473  0.06751  1.154  -0.03457  -0.1002  -0.2188
4.432e+09  -0.02651  -0.2141  0.734  -1.227  0.4631  -1.006  -0.1689  -0.06969
4.436e+09  -0.1374  -0.114  -0.8211  -1.145  -0.5946  -0.8434  -0.16  0.2338
4.44e+09  -0.2081  0.1469  -1.297  0.1403  -1.133  0.1841  0.1871  0.2956
4.444e+09  0.05923  0.2967  -0.4401  1.351  -0.3728  1.073  0.3357  -0.02163
4.448e+09  0.1909  0.03396  1.072  0.9374  0.799  0.7977  0.1379  -0.3189
4.452e+09  0.168  -0.1638  1.41  -0.6186  1.021  -0.3532  -0.2108  -0.2762
4.456e+09  -0.07879  -0.2654  0.105  -1.388  0.2299  -1.067  -0.2879  0.03606
4.46e+09  -0.2899  -0.04567  -1.209  -0.7906  -0.8689  -0.6498  -0.06788  0.1984
4.464e+09  -0.212  0.2766  -1.208  0.778  -0.9625  0.5121  0.1253  0.1626
4.468e+09  0.115  0.2429  0.08793  1.368  -0.0387  1.055  0.2005  -0.1295
4.472e+09  0.1789  -0.0001206  1.262  0.4186  0.9121  0.4703  0.01717  -0.1379
4.476e+09  0.1122  -0.2356  1.138  -0.9634  0.8242  -0.6085  -0.1395  -0.03189
4.48e+09  -0.1034  -0.1848  -0.382  -1.33  -0.1701  -0.984  -0.05774  0.08926
4.484e+09  -0.2526  0.07495  -1.237  -0.2016  -1.016  -0.273  0.09157  0.2128
4.488e+09  -0.02271  0.2113  -0.7651  1.074  -0.6835  0.7559  0.2648  -0.003486
4.492e+09  0.2599  0.1064  0.5341  1.144  0.3745  0.9567  0.08427  -0.2027
4.496e+09  0.192  -0.2132  1.366  -0.01308  0.9989  0.1305  -0.1881  -0.1467
4.5e+09  -0.03625  -0.1009  0.6196  -1.313  0.5459  -0.8839  -0.07523  0.1324
4.504e+09  -0.2226  -0.01888  -0.7823  -1.049  -0.4661  -0.8696  0.0775  0.1261
4.508e+09  -0.2319  0.2186  -1.341  0.1787  -1.014  0.06745  0.1472  -0.0215
4.512e+09  0.08654  0.2205  -0.3691  1.308  -0.406  0.9368  0.1272  -0.175
4.516e+09  0.2083  0.04513  0.8589  0.902  0.5738  0.8046  -0.09785  -0.1836
4.52e+09  0.08356  -0.1909  1.214  -0.4974  0.9782  -0.157  -0.143  0.01012
4.524e+09  -0.08266  -0.1845  0.1225  -1.227  0.2924  -0.9735  -0.007651  0.09951
4.528e+09  -0.1811  0.08491  -1.059  -0.6699  -0.694  -0.6557  0.1114  0.1211
4.532e+09  -0.04884  0.2148  -1.075  0.6888  -0.9143  0.3681  0.2029  -0.03027
4.536e+09  0.1652  0.07289  0.1232  1.255  -0.1288  0.9796  0.0006622  -0.08178
4.54e+09  0.1406  -0.1428  1.051  0.4304  0.7894  0.5126  -0.0643  -0.1156
4.544e+09  -0.05806  -0.1929  0.8864  -0.8617  0.8335  -0.4792  -0.1302  -0.05686
4.548e+09  -0.1719  -0.07529  -0.3662  -1.211  -0.00831  -0.9563  -0.05057  0.1519
4.552e+09  -0.07445  0.05505  -1.235  -0.1684  -0.8715  -0.379  0.005419  0.09419
4.556e+09  0.04033  0.2084  -0.7435  0.9141  -0.7521  0.5504  0.05362  -0.03895
4.56e+09  0.09292  0.0152  0.6577  1.112  0.1876  0.8425  -0.0316  0.0039
4.564e+09  0.04983  -0.178  1.182  0.0246  0.9274  0.2701  -0.07178  -0.1046
4.568e+09  -0.09412  -0.1173  0.513  -1.084  0.6797  -0.6505  -0.192  -0.006699
4.572e+09  -0.181  0.03676  -0.7806  -0.9581  -0.3327  -0.8583  -0.1003  0.09825
4.576e+09  -0.009038  0.1185  -1.136  0.2471  -0.9456  -0.1286  0.1241  0.153
4.58e+09  0.05251  0.06702  -0.3057  1.136  -0.5597  0.788  0.154  -0.07478
4.584e+09  0.1514  -0.01683  0.8232  0.5256  0.4064  0.8646  0.1759  -0.1075
4.588e+09  0.137  -0.1045  1.059  -0.5029  0.948  0.004973  -0.09675  -0.153
4.592e+09  -0.09663  -0.07265  0.05991  -1.162  0.4517  -0.891  -0.2744  0.1087
4.596e+09  -0.103  0.0139  -0.9932  -0.6469  -0.5678  -0.7161  -0.1195  0.171
4.6e+09  0.03458  0.02896  -1.082  0.641  -0.8773  0.05369  -0.01428  0.2024
4.604e+09  0.0816  0.0927  0.117  1.168  -0.2529  0.8713  0.2648  -0.1148
4.608e+09  0.08903  -0.04367  1.047  0.4135  0.667  0.6298  -0.06253  -0.2976
4.612e+09  -0.0629  -0.1257  0.7805  -0.7943  0.8423  -0.3102  -0.3077  -0.09705
4.616e+09  -0.126  -0.02257  -0.3214  -1.026  0.09726  -0.8646  -0.2532  0.179
4.62e+09  -0.06896  0.1317  -1.075  -0.2267  -0.793  -0.4567  0.1957  0.2587
4.624e+09  0.0655  0.126  -0.6504  0.8818  -0.7019  0.5286  0.3907  0.03248
4.628e+09  0.1648  0.02041  0.553  0.8791  0.08787  0.9651  0.1188  -0.2678
4.632e+09  0.1251  -0.09868  1.039  0.0224  0.8775  0.3533  -0.2025  -0.36
4.636e+09  -0.02468  -0.1982  0.3999  -1.012  0.7209  -0.5772  -0.3828  -0.02394
4.64e+09  -0.1401  -0.09848  -0.6945  -0.8571  -0.1833  -0.8903  -0.1818  0.3263
4.644e+09  -0.1339  0.07228  -1.09  0.1668  -0.8386  -0.2577  0.2302  0.3073
4.648e+09  0.03483  0.1202  -0.2833  1.167  -0.5524  0.613  0.3212  -0.1041
4.652e+09  0.1867  0.02237  0.7416  0.7188  0.2529  0.8365  0.04213  -0.3403
4.656e+09  0.06771  -0.1493  1.002  -0.3323  0.8499  0.1367  -0.407  -0.2058
4.66e+09  -0.1316  -0.09549  0.08495  -0.9696  0.4156  -0.7107  -0.3522  0.2579
4.664e+09  -0.2581  0.01756  -0.8275  -0.5476  -0.3841  -0.7238  0.1403  0.4164
4.668e+09  -0.1318  0.2097  -0.8078  0.5589  -0.8083  0.04496  0.4358  0.1265
4.672e+09  0.2163  0.2544  0.1163  0.9308  -0.3254  0.7461  0.3595  -0.3574
4.676e+09  0.2947  -0.05369  0.9689  0.3776  0.5562  0.6709  -0.1465  -0.3953
4.68e+09  0.1385  -0.2358  0.7075  -0.6463  0.8683  -0.1333  -0.4598  -0.07231
4.684e+09  -0.1353  -0.2382  -0.3341  -1.015  0.3247  -0.8806  -0.1847  0.2643
4.688e+09  -0.2775  0.01644  -1.037  -0.1183  -0.5084  -0.6903  0.2482  0.3944
4.692e+09  -0.1181  0.2376  -0.5482  0.8256  -0.7656  0.1735  0.2782  0.04836
4.696e+09  0.204  0.1279  0.5178  0.9728  -0.1988  0.7756  0.1311  -0.2782
4.7e+09  0.2521  -0.114  1.154  0.0324  0.6025  0.4956  -0.181  -0.1193
4.704e+09  -0.02448  -0.3073  0.4692  -0.8962  0.7622  -0.2778  -0.1789  0.1668
4.708e+09  -0.2764  -0.1601  -0.5602  -0.8416  0.08908  -0.7613  0.08563  0.3109
4.712e+09  -0.2387  0.2356  -0.9966  0.08172  -0.7125  -0.4112  0.2716  0.06593
4.716e+09  0.07054  0.2738  -0.4103  0.9287  -0.725  0.4715  0.2299  -0.26
4.72e+09  0.3192  0.04089  0.7806  0.7097  0.1414  0.7585  -0.2476  -0.3291
4.724e+09  0.2796  -0.2489  0.9588  -0.3551  0.7858  0.3501  -0.2485  -0.07436
4.728e+09  -0.08778  -0.3154  0.04256  -1.042  0.6688  -0.5699  -0.2269  0.1851
4.732e+09  -0.2671  -0.001471  -0.8844  -0.5278  -0.1725  -0.7681  0.1711  0.1903
4.736e+09  -0.1569  0.2091  -0.9754  0.4894  -0.8284  -0.1453  0.2114  -0.1279
4.74e+09  0.1911  0.2999  0.07734  1.053  -0.5103  0.6557  0.01269  -0.2694
4.744e+09  0.2688  -0.0466  1.046  0.492  0.3206  0.7379  -0.2137  -0.01846
4.748e+09  0.04376  -0.2607  0.8095  -0.7042  0.7549  0.005025  -0.1766  0.1421
4.752e+09  -0.18  -0.2123  -0.2225  -1.045  0.4251  -0.729  0.09931  0.1168
4.756e+09  -0.2493  0.1263  -1.107  -0.2459  -0.4242  -0.6917  0.1351  -0.0845
4.76e+09  -0.0183  0.2809  -0.6711  0.9057  -0.852  0.1174  -0.006013  -0.1029
4.764e+09  0.1571  0.1425  0.4724  0.9538  -0.2687  0.8005  -0.1365  -0.06424
4.768e+09  0.2224  -0.1091  0.982  -0.0127  0.5322  0.5714  -0.08606  0.1207
4.772e+09  -0.01369  -0.1993  0.4782  -0.9355  0.824  -0.2425  -0.008472  0.06342
4.776e+09  -0.1855  -0.06062  -0.5836  -0.837  0.1388  -0.824  0.007185  -0.0003319
4.78e+09  -0.08275  0.1368  -1.04  0.205  -0.6939  -0.511  -0.0826  0.001378
4.784e+09  0.085  0.1451  -0.3458  1.037  -0.6879  0.3613  0.01653  0.04219
4.788e+09  0.1238  0.007812  0.7299  0.7507  0.01143  0.8394  -0.001322  -0.01
4.792e+09  0.05742  -0.1254  0.9846  -0.2965  0.6804  0.3384  0.08103  0.006086
4.796e+09  -0.03678  -0.1411  0.1803  -0.9913  0.676  -0.4507  -0.001341  -0.04578
4.8e+09  -0.06636  -0.02383  -0.8399  -0.5239  -0.06034  -0.7444  -0.01156  -0.01949
4.804e+09  -0.07816  0.06609  -0.8397  0.4901  -0.7507  -0.2198  0.004998  0.1182
4.808e+09  0.04914  0.05842  0.1445  0.9633  -0.5257  0.5267  0.03696  0.0403
4.812e+09  0.02095  0.05087  0.9063  0.3933  0.2146  0.7406  0.1284  -0.05559
4.816e+09  0.08195  -0.02922  0.7319  -0.7363  0.7912  0.07627  -0.0735  -0.1101
4.82e+09  -0.03951  -0.109  -0.3281  -0.8467  0.4845  -0.614  -0.1536  -0.1013
4.824e+09  -0.03856  -0.07289  -0.9761  -0.1612  -0.3138  -0.6892  -0.04229  0.133
4.828e+09  -0.09067  0.004736  -0.4735  0.7796  -0.8046  0.0164  0.119  0.1465
4.832e+09  -0.0388  0.06003  0.4168  0.8403  -0.417  0.7332  0.2344  -0.009147
4.836e+09  0.02225  0.0914  1.056  -0.05453  0.3977  0.5864  0.03053  -0.2455
4.84e+09  0.07492  0.03865  0.3504  -0.8296  0.7454  -0.06501  -0.1771  -0.08209
4.844e+09  0.07962  -0.1236  -0.5785  -0.7461  0.2067  -0.7128  -0.1994  0.07879
4.848e+09  -0.03218  -0.1221  -0.9474  0.1512  -0.4878  -0.5424  -0.02305  0.3178
4.852e+09  -0.1187  -0.02461  -0.2359  0.9928  -0.7672  0.2726  0.1901  -0.02603
4.856e+09  -0.04386  0.1321  0.755  0.709  -0.1343  0.7593  0.1948  -0.12
4.86e+09  0.0625  0.056  0.8657  -0.4146  0.5583  0.4826  -0.09049  -0.1809
4.864e+09  0.09178  -0.04778  0.007879  -0.8701  0.674  -0.29  -0.305  0.04161
4.868e+09  0.01858  -0.1051  -0.7425  -0.4134  -0.01659  -0.747  -0.1355  0.2319
4.872e+09  -0.06929  -0.01108  -0.7217  0.5726  -0.6386  -0.3811  0.2445  0.2394
4.876e+09  -0.118  0.1126  0.1357  0.8801  -0.6002  0.383  0.2637  -0.0982
4.88e+09  0.091  0.1009  0.8944  0.2982  0.07796  0.7946  0.08897  -0.2193
4.884e+09  0.1413  -0.05463  0.5764  -0.5511  0.6682  0.2533  -0.3057  -0.1006
4.888e+09  0.04138  -0.1421  -0.1895  -0.8109  0.5535  -0.5095  -0.2067  0.2055
4.892e+09  -0.1349  -0.08505  -0.8633  -0.07307  -0.1824  -0.6717  0.1248  0.2863
4.896e+09  -0.141  0.1189  -0.4803  0.6336  -0.6697  -0.1968  0.2597  -0.03669
4.9e+09  0.04293  0.1088  0.3928  0.7629  -0.4108  0.457  0.1313  -0.2527
4.904e+09  0.1143  0.02577  0.7784  0.01235  0.2176  0.6166  -0.2158  -0.2461
4.908e+09  0.09102  -0.1203  0.3843  -0.7707  0.6211  0.09656  -0.2347  0.1094
4.912e+09  -0.1013  -0.1407  -0.4379  -0.6615  0.3201  -0.5832  -0.06987  0.2944
4.916e+09  -0.1617  0.02148  -0.8041  0.1299  -0.2802  -0.5503  0.1934  0.1402
4.92e+09  0.03635  0.1787  -0.2872  0.771  -0.632  -0.01622  0.2627  -0.1354
4.924e+09  0.1925  0.06726  0.5797  0.5689  -0.3023  0.6225  -0.01555  -0.2733
4.928e+09  0.1839  -0.1514  0.8021  -0.2801  0.3778  0.5085  -0.3143  0.009861
4.932e+09  -0.05545  -0.2122  0.1585  -0.7515  0.6152  -0.05085  -0.16  0.2471
4.936e+09  -0.2118  -0.05704  -0.6753  -0.4345  0.1913  -0.623  0.1043  0.255
4.94e+09  -0.1274  0.1818  -0.7331  0.372  -0.4078  -0.5018  0.2679  0.03118
4.944e+09  0.1618  0.2163  -0.003495  0.8331  -0.647  0.2062  0.0671  -0.1984
4.948e+09  0.2553  0.00139  0.7605  0.4061  -0.131  0.672  -0.191  -0.1106
4.952e+09  0.06622  -0.3187  0.6469  -0.5017  0.5743  0.4118  -0.1596  0.145
4.956e+09  -0.1746  -0.204  -0.1983  -0.8769  0.6718  -0.3265  -0.05254  0.1437
4.96e+09  -0.2483  0.1366  -0.8417  -0.2796  -0.02046  -0.7267  0.07413  0.04196
4.964e+09  -0.04115  0.2499  -0.715  0.6199  -0.6562  -0.3602  0.1356  -0.05953
4.968e+09  0.2848  0.1659  0.3238  0.8306  -0.6028  0.4068  -0.1295  -0.1704
4.972e+09  0.2451  -0.2567  0.8263  0.2036  0.09339  0.7341  -0.1716  0.02754
4.976e+09  -0.1276  -0.3136  0.477  -0.7413  0.7647  0.2504  -0.02735  0.1448
4.98e+09  -0.3341  -0.07171  -0.5682  -0.6787  0.5118  -0.5187  0.04298  0.06009
4.984e+09  -0.201  0.2677  -0.8735  0.1639  -0.2604  -0.6515  0.1229  -0.06125
4.988e+09  0.1128  0.2653  -0.2679  0.7989  -0.7559  -0.09666  0.003749  -0.05326
4.992e+09  0.3148  -0.004459  0.6742  0.5363  -0.4586  0.5737  -0.03217  0.01538
4.996e+09  0.09236  -0.164  0.7748  -0.3035  0.3328  0.6675  0.001874  0.05594
5e+09  -0.1652  -0.1064  0.1345  -0.9457  0.7701  0.02542  0.02887  -0.01219
5.004e+09  -0.15  0.0813  -0.7077  -0.4845  0.3336  -0.6996  0.03925  -0.0314
5.008e+09  0.009122  0.1934  -0.732  0.3926  -0.4211  -0.5716  -0.1016  0.04181
5.012e+09  0.1245  0.08379  0.08908  0.8297  -0.6475  0.1368  -0.04444  -0.05091
5.016e+09  0.2016  -0.06475  0.7055  0.3169  -0.2213  0.6353  0.03299  0.03932
5.02e+09  -0.01352  -0.1991  0.6412  -0.5578  0.4746  0.4806  -0.02809  0.0003548
5.024e+09  -0.08993  -0.0589  -0.1863  -0.7592  0.6475  -0.1661  0.05197  -0.02943
5.028e+09  -0.131  0.07942  -0.7281  -0.1692  0.1093  -0.6555  0.0538  0.05363
